!Agilent Technologies,N5230A,US43500510,A.06.04.32
!Agilent N5230A: A.06.04.32
!Date: Wednesday, July 01, 2009 21:09:22
!Correction: S11(Full 4 Port(1,2,3,4)) S21(Full 4 Port(1,2,3,4)) S12(Full 4 Port(1,2,3,4)) S22(Full 4 Port(1,2,3,4)) 
!S2P File: Measurements: S11, S21, S12, S22:
# Hz S  dB   R 50
300000 -4.774239e+001 9.231564e+001 -1.147547e-002 -4.885919e-001 -2.535691e-002 -5.052195e-001 -4.869728e+001 -5.330824e+000
1862476.5625 -4.959843e+001 1.003474e+002 -1.520152e-002 -1.644049e+000 -2.786666e-002 -1.614319e+000 -5.230621e+001 2.200646e+001
3424953.125 -4.814980e+001 9.962119e+001 -1.259055e-002 -2.865581e+000 -2.736996e-002 -2.834927e+000 -5.171674e+001 3.741853e+001
4987429.6875 -4.671281e+001 9.234772e+001 -1.091766e-002 -4.158205e+000 -3.032382e-002 -4.113557e+000 -5.053618e+001 4.954521e+001
6549906.25 -4.620641e+001 8.466044e+001 -1.243378e-002 -5.403610e+000 -3.036285e-002 -5.380154e+000 -4.933976e+001 4.712234e+001
8112382.8125 -4.483913e+001 7.730857e+001 -1.540950e-002 -6.668692e+000 -3.295016e-002 -6.637836e+000 -4.859007e+001 4.846709e+001
9674859.375 -4.338835e+001 6.790129e+001 -2.004930e-002 -7.954870e+000 -3.333621e-002 -7.914878e+000 -4.711661e+001 4.382911e+001
11237335.9375 -4.248060e+001 5.467852e+001 -2.030999e-002 -9.245801e+000 -3.314489e-002 -9.193809e+000 -4.526610e+001 3.217518e+001
12799812.5 -4.186794e+001 4.851773e+001 -2.151989e-002 -1.051798e+001 -3.318442e-002 -1.046109e+001 -4.448680e+001 2.591937e+001
14362289.0625 -4.138355e+001 4.201891e+001 -2.470799e-002 -1.178166e+001 -3.594867e-002 -1.174172e+001 -4.410950e+001 2.459903e+001
15924765.625 -4.072662e+001 3.678896e+001 -2.882673e-002 -1.305123e+001 -3.637736e-002 -1.301366e+001 -4.418464e+001 2.173075e+001
17487242.1875 -4.045208e+001 3.420187e+001 -3.111776e-002 -1.432506e+001 -3.681009e-002 -1.427850e+001 -4.387785e+001 2.356815e+001
19049718.75 -4.012941e+001 3.139720e+001 -3.321837e-002 -1.560278e+001 -3.641443e-002 -1.555555e+001 -4.352929e+001 2.623380e+001
20612195.3125 -3.969241e+001 2.953064e+001 -3.491502e-002 -1.687181e+001 -3.578200e-002 -1.681937e+001 -4.323246e+001 2.827272e+001
22174671.875 -3.949952e+001 2.749542e+001 -3.677411e-002 -1.813885e+001 -3.678481e-002 -1.809921e+001 -4.312345e+001 2.760035e+001
23737148.4375 -3.964417e+001 2.484712e+001 -3.846128e-002 -1.941209e+001 -3.750464e-002 -1.935613e+001 -4.265906e+001 2.824617e+001
25299625 -3.952103e+001 2.069450e+001 -3.926082e-002 -2.067045e+001 -3.714933e-002 -2.063363e+001 -4.217406e+001 2.740212e+001
26862101.5625 -3.957974e+001 1.796050e+001 -4.056597e-002 -2.193533e+001 -3.925053e-002 -2.191006e+001 -4.208719e+001 2.526840e+001
28424578.125 -3.970113e+001 1.255403e+001 -4.016003e-002 -2.318079e+001 -3.941728e-002 -2.316515e+001 -4.157298e+001 2.389705e+001
29987054.6875 -3.963560e+001 9.444317e+000 -4.216961e-002 -2.443338e+001 -3.966951e-002 -2.444953e+001 -4.141875e+001 2.221545e+001
31549531.25 -4.002092e+001 6.701434e+000 -4.272019e-002 -2.569918e+001 -4.001811e-002 -2.571313e+001 -4.110133e+001 2.038881e+001
33112007.8125 -4.022054e+001 3.861882e+000 -4.486132e-002 -2.696276e+001 -4.261992e-002 -2.699360e+001 -4.082010e+001 1.878852e+001
34674484.375 -4.059617e+001 2.137346e+000 -4.463073e-002 -2.822296e+001 -4.353724e-002 -2.826319e+001 -4.053925e+001 1.797683e+001
36236960.9375 -4.091045e+001 4.302276e-001 -4.473487e-002 -2.948952e+001 -4.277130e-002 -2.953796e+001 -4.040546e+001 1.703469e+001
37799437.5 -4.136536e+001 -2.106991e-001 -4.497659e-002 -3.076631e+001 -4.207259e-002 -3.080504e+001 -4.026191e+001 1.636104e+001
39361914.0625 -4.176994e+001 -1.725043e+000 -4.558940e-002 -3.203551e+001 -4.416341e-002 -3.207568e+001 -4.000813e+001 1.579511e+001
40924390.625 -4.211015e+001 2.032742e-001 -4.964936e-002 -3.330391e+001 -4.546911e-002 -3.334260e+001 -3.988240e+001 1.535534e+001
42486867.1875 -4.283595e+001 5.029838e+000 -4.933062e-002 -3.457112e+001 -4.677254e-002 -3.460662e+001 -3.981181e+001 1.405023e+001
44049343.75 -4.295338e+001 7.423814e+000 -5.016866e-002 -3.583569e+001 -4.855658e-002 -3.586200e+001 -3.970385e+001 1.593262e+001
45611820.3125 -4.295592e+001 9.870704e+000 -5.017140e-002 -3.711048e+001 -5.509824e-002 -3.717459e+001 -3.961538e+001 1.481233e+001
47174296.875 -4.324083e+001 1.436410e+001 -4.999319e-002 -3.836979e+001 -5.729242e-002 -3.842077e+001 -3.943960e+001 1.263431e+001
48736773.4375 -4.366997e+001 1.833255e+001 -5.054345e-002 -3.964215e+001 -5.854373e-002 -3.969146e+001 -3.961088e+001 1.031443e+001
50299250 -4.323530e+001 2.186150e+001 -4.791648e-002 -4.090405e+001 -5.895396e-002 -4.096070e+001 -3.931832e+001 1.108347e+001
51861726.5625 -4.288214e+001 2.672852e+001 -4.667405e-002 -4.216522e+001 -5.888321e-002 -4.222707e+001 -3.920663e+001 8.980329e+000
53424203.125 -4.255838e+001 2.664818e+001 -5.081098e-002 -4.343594e+001 -6.122337e-002 -4.348411e+001 -3.924294e+001 7.311660e+000
54986679.6875 -4.160603e+001 2.918758e+001 -4.923731e-002 -4.469733e+001 -5.999371e-002 -4.475814e+001 -3.936840e+001 7.731211e+000
56549156.25 -4.140689e+001 3.106515e+001 -4.754756e-002 -4.595857e+001 -6.371853e-002 -4.602193e+001 -3.924227e+001 6.600780e+000
58111632.8125 -4.070555e+001 2.944710e+001 -5.082794e-002 -4.722728e+001 -6.155572e-002 -4.727560e+001 -3.934709e+001 5.218843e+000
59674109.375 -4.023456e+001 2.921589e+001 -4.634214e-002 -4.852335e+001 -6.259500e-002 -4.855162e+001 -3.908225e+001 6.243441e+000
61236585.9375 -3.979484e+001 2.866586e+001 -5.193362e-002 -4.977337e+001 -6.293436e-002 -4.982153e+001 -3.902958e+001 3.705354e+000
62799062.5 -3.920651e+001 2.590180e+001 -5.381669e-002 -5.105363e+001 -6.607140e-002 -5.107244e+001 -3.918497e+001 2.122891e+000
64361539.0625 -3.840577e+001 2.399902e+001 -5.353326e-002 -5.234121e+001 -6.500925e-002 -5.234196e+001 -3.897013e+001 3.666033e+000
65924015.625 -3.844608e+001 2.286690e+001 -5.330957e-002 -5.360746e+001 -6.495068e-002 -5.358251e+001 -3.916634e+001 -9.408991e-002
67486492.1875 -3.820086e+001 2.061753e+001 -5.411659e-002 -5.488315e+001 -6.669784e-002 -5.487521e+001 -3.904117e+001 8.225923e-003
69048968.75 -3.782099e+001 1.707314e+001 -5.522649e-002 -5.615419e+001 -6.889504e-002 -5.611373e+001 -3.904450e+001 -1.383375e-001
70611445.3125 -3.765836e+001 1.432310e+001 -5.631068e-002 -5.741038e+001 -6.624164e-002 -5.738218e+001 -3.887233e+001 -2.278469e+000
72173921.875 -3.741241e+001 1.163751e+001 -5.774403e-002 -5.869122e+001 -6.493311e-002 -5.865783e+001 -3.888129e+001 -3.433750e+000
73736398.4375 -3.711465e+001 8.186214e+000 -5.667135e-002 -5.994885e+001 -6.790026e-002 -5.991581e+001 -3.885360e+001 -2.981751e+000
75298875 -3.713992e+001 3.151740e+000 -5.902436e-002 -6.122316e+001 -6.822623e-002 -6.117202e+001 -3.892852e+001 -4.961581e+000
76861351.5625 -3.712236e+001 2.104238e+000 -6.054049e-002 -6.248329e+001 -6.628881e-002 -6.244852e+001 -3.916446e+001 -6.204630e+000
78423828.125 -3.715063e+001 -1.856837e+000 -5.919817e-002 -6.375021e+001 -6.657080e-002 -6.369257e+001 -3.865619e+001 -6.374305e+000
79986304.6875 -3.719212e+001 -4.823676e+000 -6.448932e-002 -6.502158e+001 -6.622180e-002 -6.497191e+001 -3.883864e+001 -6.909447e+000
81548781.25 -3.732413e+001 -7.172279e+000 -6.301545e-002 -6.626740e+001 -6.489342e-002 -6.623364e+001 -3.878271e+001 -7.700522e+000
83111257.8125 -3.729173e+001 -9.569874e+000 -6.544524e-002 -6.754020e+001 -6.492186e-002 -6.751366e+001 -3.866463e+001 -8.910988e+000
84673734.375 -3.756776e+001 -1.340996e+001 -6.876498e-002 -6.879921e+001 -6.871229e-002 -6.877960e+001 -3.872673e+001 -1.079474e+001
86236210.9375 -3.770586e+001 -1.579527e+001 -6.700936e-002 -7.007036e+001 -6.889099e-002 -7.004535e+001 -3.890357e+001 -1.199504e+001
87798687.5 -3.782954e+001 -1.752164e+001 -6.765347e-002 -7.134216e+001 -6.444903e-002 -7.128881e+001 -3.894254e+001 -1.187826e+001
89361164.0625 -3.843547e+001 -2.049833e+001 -6.845389e-002 -7.258258e+001 -6.432707e-002 -7.257429e+001 -3.897559e+001 -1.340830e+001
90923640.625 -3.871023e+001 -2.093297e+001 -6.914984e-002 -7.386543e+001 -6.861787e-002 -7.385037e+001 -3.894741e+001 -1.466314e+001
92486117.1875 -3.935137e+001 -2.383211e+001 -6.940386e-002 -7.512919e+001 -6.746998e-002 -7.510437e+001 -3.909616e+001 -1.686105e+001
94048593.75 -3.983443e+001 -2.618050e+001 -6.990556e-002 -7.639430e+001 -6.983006e-002 -7.640435e+001 -3.937871e+001 -1.866084e+001
95611070.3125 -4.033035e+001 -2.511260e+001 -7.065244e-002 -7.763831e+001 -7.070708e-002 -7.765411e+001 -3.894640e+001 -1.794133e+001
97173546.875 -4.105012e+001 -2.645406e+001 -7.256609e-002 -7.890988e+001 -7.212604e-002 -7.891344e+001 -3.935673e+001 -2.063476e+001
98736023.4375 -4.144981e+001 -2.663825e+001 -7.213999e-002 -8.017680e+001 -7.454064e-002 -8.019152e+001 -3.912586e+001 -2.280827e+001
100298500 -4.250023e+001 -2.433737e+001 -7.061372e-002 -8.142934e+001 -6.999888e-002 -8.146945e+001 -3.936971e+001 -2.542192e+001
101860976.5625 -4.271438e+001 -2.368575e+001 -7.195466e-002 -8.270544e+001 -6.905942e-002 -8.274022e+001 -3.946690e+001 -2.533308e+001
103423453.125 -4.315531e+001 -2.403407e+001 -7.154410e-002 -8.395026e+001 -7.068357e-002 -8.400505e+001 -3.953284e+001 -2.742562e+001
104985929.6875 -4.376287e+001 -2.156923e+001 -7.062699e-002 -8.522297e+001 -7.247928e-002 -8.526017e+001 -3.979312e+001 -2.957084e+001
106548406.25 -4.377980e+001 -1.959455e+001 -7.077359e-002 -8.648880e+001 -7.393581e-002 -8.654527e+001 -3.986003e+001 -3.252293e+001
108110882.8125 -4.397322e+001 -1.912839e+001 -7.187825e-002 -8.773500e+001 -7.444327e-002 -8.781504e+001 -3.995749e+001 -3.376046e+001
109673359.375 -4.343836e+001 -1.548459e+001 -6.900482e-002 -8.900537e+001 -7.371377e-002 -8.908598e+001 -3.979966e+001 -3.810636e+001
111235835.9375 -4.334072e+001 -1.615032e+001 -7.034853e-002 -9.027962e+001 -7.716803e-002 -9.034438e+001 -4.010170e+001 -3.894928e+001
112798312.5 -4.295259e+001 -1.466331e+001 -6.995966e-002 -9.152080e+001 -7.812806e-002 -9.160246e+001 -3.999747e+001 -4.168193e+001
114360789.0625 -4.235242e+001 -1.359824e+001 -7.196430e-002 -9.280931e+001 -7.807507e-002 -9.288502e+001 -4.017103e+001 -4.264563e+001
115923265.625 -4.227744e+001 -1.553857e+001 -7.221292e-002 -9.408100e+001 -7.894760e-002 -9.412402e+001 -4.051182e+001 -4.465253e+001
117485742.1875 -4.199415e+001 -1.567691e+001 -6.895423e-002 -9.536053e+001 -7.592526e-002 -9.542213e+001 -4.043548e+001 -4.780374e+001
119048218.75 -4.169995e+001 -1.763406e+001 -7.120654e-002 -9.661322e+001 -7.997299e-002 -9.666724e+001 -4.097844e+001 -5.126708e+001
120610695.3125 -4.135894e+001 -2.014143e+001 -6.938688e-002 -9.787981e+001 -8.099287e-002 -9.792455e+001 -4.075244e+001 -5.086408e+001
122173171.875 -4.121540e+001 -2.119401e+001 -7.144288e-002 -9.915111e+001 -8.108708e-002 -9.920438e+001 -4.098993e+001 -5.598557e+001
123735648.4375 -4.115395e+001 -2.282203e+001 -7.118536e-002 -1.003994e+002 -8.198300e-002 -1.004480e+002 -4.160442e+001 -5.396070e+001
125298125 -4.095600e+001 -2.239589e+001 -6.964382e-002 -1.016923e+002 -8.152146e-002 -1.017274e+002 -4.189025e+001 -5.875875e+001
126860601.5625 -4.091973e+001 -2.669740e+001 -7.146602e-002 -1.029398e+002 -8.457623e-002 -1.029704e+002 -4.193605e+001 -6.151355e+001
128423078.125 -4.101161e+001 -2.843436e+001 -6.838333e-002 -1.042232e+002 -8.105533e-002 -1.042468e+002 -4.266400e+001 -6.086782e+001
129985554.6875 -4.124120e+001 -3.086516e+001 -6.983606e-002 -1.054952e+002 -8.125386e-002 -1.055108e+002 -4.311285e+001 -5.781955e+001
131548031.25 -4.161590e+001 -3.109488e+001 -7.062021e-002 -1.067606e+002 -8.352847e-002 -1.067860e+002 -4.385457e+001 -6.311248e+001
133110507.8125 -4.175122e+001 -3.374700e+001 -7.355493e-002 -1.080429e+002 -8.637460e-002 -1.080312e+002 -4.506593e+001 -5.989825e+001
134672984.375 -4.237345e+001 -3.662239e+001 -7.564646e-002 -1.093129e+002 -8.673339e-002 -1.093023e+002 -4.511923e+001 -5.875825e+001
136235460.9375 -4.284249e+001 -3.640165e+001 -7.535103e-002 -1.105795e+002 -8.340263e-002 -1.105783e+002 -4.555176e+001 -5.570054e+001
137797937.5 -4.385893e+001 -3.844216e+001 -7.887039e-002 -1.118377e+002 -8.844254e-002 -1.118079e+002 -4.729008e+001 -5.846690e+001
139360414.0625 -4.433825e+001 -4.248991e+001 -7.981601e-002 -1.131001e+002 -8.316178e-002 -1.130935e+002 -4.835385e+001 -5.243084e+001
140922890.625 -4.495802e+001 -4.205806e+001 -7.661503e-002 -1.143682e+002 -8.297817e-002 -1.143535e+002 -4.930660e+001 -5.296587e+001
142485367.1875 -4.640329e+001 -4.823092e+001 -8.078299e-002 -1.156400e+002 -8.643910e-002 -1.156459e+002 -4.938311e+001 -4.355020e+001
144047843.75 -4.675240e+001 -4.626500e+001 -8.108097e-002 -1.168938e+002 -8.404322e-002 -1.168790e+002 -5.137210e+001 -3.354412e+001
145610320.3125 -4.848734e+001 -4.968247e+001 -8.167402e-002 -1.181647e+002 -8.650663e-002 -1.181444e+002 -5.155453e+001 -3.342525e+001
147172796.875 -5.065072e+001 -4.382921e+001 -8.113825e-002 -1.194273e+002 -8.382516e-002 -1.194134e+002 -5.366393e+001 -3.097448e+001
148735273.4375 -5.247290e+001 -4.585335e+001 -8.407792e-002 -1.206889e+002 -8.416083e-002 -1.206915e+002 -5.470773e+001 -1.536886e+001
150297750 -5.317685e+001 -4.765912e+001 -8.438496e-002 -1.219554e+002 -8.579233e-002 -1.219368e+002 -5.415740e+001 -1.381617e+001
151860226.5625 -5.594505e+001 -4.997612e+001 -8.415279e-002 -1.232232e+002 -8.363707e-002 -1.232090e+002 -5.568269e+001 4.608654e+000
153422703.125 -5.868907e+001 -4.669007e+001 -8.388133e-002 -1.244957e+002 -8.765163e-002 -1.244819e+002 -5.723938e+001 -1.002786e+001
154985179.6875 -6.114493e+001 -5.999105e+001 -8.453198e-002 -1.257584e+002 -8.654040e-002 -1.257484e+002 -5.948272e+001 2.325442e+001
156547656.25 -6.202828e+001 6.482327e-001 -8.814032e-002 -1.270124e+002 -9.076675e-002 -1.270131e+002 -5.985434e+001 3.310452e+001
158110132.8125 -6.835180e+001 3.768636e+000 -8.616243e-002 -1.282597e+002 -8.960208e-002 -1.282613e+002 -6.307096e+001 2.446291e+001
159672609.375 -6.271012e+001 2.963259e+001 -8.514978e-002 -1.295214e+002 -8.984619e-002 -1.295412e+002 -6.553371e+001 5.083602e+001
161235085.9375 -6.102258e+001 4.727544e+001 -8.481900e-002 -1.307872e+002 -9.180005e-002 -1.308013e+002 -6.139114e+001 9.159303e+001
162797562.5 -6.298347e+001 7.141274e+001 -8.945933e-002 -1.320794e+002 -9.280127e-002 -1.320694e+002 -6.070550e+001 1.504950e+002
164360039.0625 -6.216907e+001 4.866977e+001 -8.619600e-002 -1.333451e+002 -9.364096e-002 -1.333464e+002 -5.742583e+001 1.663114e+002
165922515.625 -6.104116e+001 5.169439e+001 -8.819658e-002 -1.345848e+002 -9.488804e-002 -1.346279e+002 -5.481451e+001 1.678622e+002
167484992.1875 -6.060028e+001 5.618079e+001 -8.626501e-002 -1.358424e+002 -9.466796e-002 -1.358829e+002 -5.236104e+001 1.586155e+002
169047468.75 -5.910917e+001 6.636976e+001 -8.626857e-002 -1.371078e+002 -9.374101e-002 -1.371522e+002 -5.235151e+001 1.702569e+002
170609945.3125 -5.878283e+001 6.769363e+001 -8.594983e-002 -1.383838e+002 -9.667463e-002 -1.384047e+002 -4.917683e+001 1.677898e+002
172172421.875 -5.807008e+001 7.259698e+001 -8.731469e-002 -1.396623e+002 -9.714979e-002 -1.396835e+002 -4.808659e+001 1.701678e+002
173734898.4375 -5.673281e+001 7.564064e+001 -8.725032e-002 -1.408839e+002 -9.793341e-002 -1.409377e+002 -4.675032e+001 1.693768e+002
175297375 -5.785519e+001 7.482636e+001 -8.363102e-002 -1.421513e+002 -9.685248e-002 -1.422015e+002 -4.568951e+001 1.654724e+002
176859851.5625 -5.725981e+001 8.185790e+001 -8.758108e-002 -1.434279e+002 -9.847202e-002 -1.434669e+002 -4.477173e+001 1.685328e+002
178422328.125 -5.533290e+001 9.477546e+001 -8.684108e-002 -1.446764e+002 -1.008506e-001 -1.447401e+002 -4.418775e+001 1.625258e+002
179984804.6875 -5.352411e+001 1.023391e+002 -8.722070e-002 -1.459519e+002 -9.873676e-002 -1.460121e+002 -4.344936e+001 1.616113e+002
181547281.25 -5.293756e+001 1.005514e+002 -8.364884e-002 -1.472087e+002 -9.868351e-002 -1.472712e+002 -4.267487e+001 1.599766e+002
183109757.8125 -5.347642e+001 1.083120e+002 -8.399144e-002 -1.484829e+002 -9.839447e-002 -1.485352e+002 -4.238542e+001 1.567265e+002
184672234.375 -5.121273e+001 1.074154e+002 -8.638060e-002 -1.497299e+002 -9.801659e-002 -1.498341e+002 -4.258646e+001 1.567127e+002
186234710.9375 -4.954470e+001 1.060667e+002 -8.668335e-002 -1.510263e+002 -9.649377e-002 -1.510865e+002 -4.128001e+001 1.509386e+002
187797187.5 -4.938226e+001 1.062420e+002 -8.858268e-002 -1.522746e+002 -1.003000e-001 -1.523452e+002 -4.132291e+001 1.501028e+002
189359664.0625 -4.783376e+001 1.134798e+002 -8.903711e-002 -1.535550e+002 -9.947470e-002 -1.536237e+002 -4.095659e+001 1.461531e+002
190922140.625 -4.658279e+001 1.106007e+002 -8.863945e-002 -1.548346e+002 -1.003899e-001 -1.548752e+002 -4.080453e+001 1.409255e+002
192484617.1875 -4.572037e+001 1.108479e+002 -9.197494e-002 -1.560902e+002 -9.942453e-002 -1.561385e+002 -4.039377e+001 1.413796e+002
194047093.75 -4.469657e+001 1.073082e+002 -9.053309e-002 -1.573741e+002 -9.922919e-002 -1.574142e+002 -4.009447e+001 1.375099e+002
195609570.3125 -4.393412e+001 1.092447e+002 -9.247036e-002 -1.586296e+002 -9.774377e-002 -1.586705e+002 -3.989880e+001 1.354549e+002
197172046.875 -4.348801e+001 1.077688e+002 -9.262644e-002 -1.598764e+002 -9.820202e-002 -1.599460e+002 -4.003831e+001 1.313452e+002
198734523.4375 -4.239001e+001 1.064839e+002 -9.346150e-002 -1.611692e+002 -1.000440e-001 -1.612144e+002 -3.933675e+001 1.283850e+002
200297000 -4.170527e+001 1.020562e+002 -9.384883e-002 -1.624408e+002 -1.015943e-001 -1.624637e+002 -3.933299e+001 1.268006e+002
201859476.5625 -4.109954e+001 1.017257e+002 -9.447697e-002 -1.636948e+002 -1.015995e-001 -1.637201e+002 -3.923217e+001 1.247742e+002
203421953.125 -4.067699e+001 1.022566e+002 -9.821492e-002 -1.649831e+002 -1.004239e-001 -1.649876e+002 -3.890366e+001 1.198387e+002
204984429.6875 -4.033327e+001 9.968140e+001 -9.751853e-002 -1.662439e+002 -1.027352e-001 -1.662475e+002 -3.912274e+001 1.178123e+002
206546906.25 -3.960299e+001 9.587045e+001 -9.582262e-002 -1.675110e+002 -9.879523e-002 -1.675065e+002 -3.877171e+001 1.156817e+002
208109382.8125 -3.947379e+001 9.580421e+001 -9.805196e-002 -1.687755e+002 -1.020064e-001 -1.687867e+002 -3.844305e+001 1.126815e+002
209671859.375 -3.902953e+001 9.582246e+001 -9.861391e-002 -1.700606e+002 -1.000632e-001 -1.700379e+002 -3.838333e+001 1.093012e+002
211234335.9375 -3.873603e+001 9.403154e+001 -1.018807e-001 -1.713043e+002 -1.030820e-001 -1.712832e+002 -3.841612e+001 1.088809e+002
212796812.5 -3.837336e+001 9.189307e+001 -1.016870e-001 -1.725742e+002 -1.017935e-001 -1.725525e+002 -3.809448e+001 1.057062e+002
214359289.0625 -3.799163e+001 9.113884e+001 -1.008819e-001 -1.738480e+002 -1.009727e-001 -1.738185e+002 -3.777307e+001 1.041445e+002
215921765.625 -3.762531e+001 9.033938e+001 -1.015271e-001 -1.751116e+002 -1.031818e-001 -1.750957e+002 -3.776038e+001 1.012272e+002
217484242.1875 -3.752876e+001 8.886331e+001 -1.031231e-001 -1.763908e+002 -1.024184e-001 -1.763601e+002 -3.743730e+001 9.829529e+001
219046718.75 -3.771082e+001 8.481734e+001 -1.011390e-001 -1.776548e+002 -1.041160e-001 -1.776133e+002 -3.735247e+001 9.599759e+001
220609195.3125 -3.736859e+001 8.458442e+001 -1.030229e-001 -1.789386e+002 -1.020305e-001 -1.788694e+002 -3.715451e+001 9.429196e+001
222171671.875 -3.723881e+001 8.169109e+001 -1.044509e-001 1.798161e+002 -1.053533e-001 1.798419e+002 -3.707365e+001 9.443767e+001
223734148.4375 -3.727086e+001 8.174940e+001 -1.031084e-001 1.785660e+002 -1.053252e-001 1.785878e+002 -3.675725e+001 9.089083e+001
225296625 -3.718927e+001 7.873407e+001 -1.042070e-001 1.772897e+002 -1.059748e-001 1.773081e+002 -3.686288e+001 9.114962e+001
226859101.5625 -3.699023e+001 7.694100e+001 -1.036532e-001 1.760363e+002 -1.064201e-001 1.760493e+002 -3.655900e+001 8.759859e+001
228421578.125 -3.696447e+001 7.539465e+001 -1.024672e-001 1.747810e+002 -1.037823e-001 1.747892e+002 -3.636165e+001 8.822790e+001
