#H
SOURCE='HSPICE' VERSION='A-2008.03-SP1 32'
TITLE='$gen3 cabling model - vsc driver output only'
SERIALNO='08.03'
TIME='11:11:18' DATE='10/11/2008'
ANALYSIS='TR' TEMPERATURE=' 5.00000E+001' SWEEPVAR='TIME'
SWEEPMODE='VAR_STEP' COMPLEXVALUES='NO' FORMAT='1 VOLTSorAMPS;EFLOAT'
XBEGIN=' 0.00000E+000' XEND=' 1.00000E-008'
NODES='     7'
#N 'v(src1)' 'v(src2)' 'v(src1,src2)' 'v(out_p)' 'v(out_n)' 'v(out_p,out_n)' 'par(eyetime)' 

#C  0.0000000e+000    7     0.999699    0.999699           0      1.9755 
     1.9755           0      1e-010 
#C  1.0000000e-012    7     0.999699    0.999699           0      1.9755 
     1.9755           0   1.01e-010 
#C  2.0000000e-012    7     0.999699    0.999699           0      1.9755 
     1.9755           0   1.02e-010 
#C  5.2000000e-012    7     0.999699    0.999699           0      1.9755 
     1.9755           0  1.052e-010 
#C  1.0000000e-011    7     0.999699    0.999699           0      1.9755 
     1.9755           0    1.1e-010 
#C  1.3125000e-011    7      1.07775    0.919337    0.158412      1.9755 
     1.9755           0  1.13125e-010 
#C  1.5329383e-011    7      1.13515    0.854232     0.28092      1.9755 
     1.9755           0  1.15329e-010 
#C  1.6250000e-011    7       1.1596    0.825082    0.334515      1.9755 
     1.9755           0  1.1625e-010 
#C  1.7722988e-011    7      1.16582    0.815018    0.350806      1.9755 
     1.9755           0  1.17723e-010 
#C  1.9312845e-011    7      1.17014     0.80834    0.361802      1.9755 
     1.9755           0  1.19313e-010 
#C  2.1905517e-011    7      1.17486    0.802952    0.371906      1.9755 
     1.9755           0  1.21906e-010 
#C  2.7798373e-011    7      1.18116    0.799575    0.381587      1.9755 
     1.9755           0  1.27798e-010 
#C  3.3038045e-011    7      1.18435    0.799768     0.38458      1.9755 
     1.9755           0  1.33038e-010 
#C  4.1635081e-011    7      1.18755    0.800168    0.387385      1.9755 
     1.9755           0  1.41635e-010 
#C  4.9397179e-011    7      1.18944    0.800217    0.389218      1.9755 
     1.9755           0  1.49397e-010 
#C  5.8353596e-011    7      1.19105    0.800128    0.390918      1.9755 
     1.9755           0  1.58354e-010 
#C  7.0535237e-011    7      1.19254    0.800048    0.392496      1.9755 
     1.9755  1.23881e-006  1.70535e-010 
#C  8.1167587e-011    7      1.19346    0.800046    0.393418     1.97559 
    1.97541  0.000180081  1.81168e-010 
#C  9.4680247e-011    7      1.19431    0.800074    0.394234      1.9779 
    1.97301  0.00488996  1.9468e-010 
#C  1.0877880e-010    7      1.19495    0.800095    0.394859     1.99003 
    1.95809   0.0319355  2.08779e-010 
#C  1.2169680e-010    7      1.19542      0.8001    0.395321     2.01245 
    1.92605   0.0863964  2.21697e-010 
#C  1.3542958e-010    7      1.19583    0.800079    0.395755     2.04276 
    1.88087    0.161892  2.3543e-010 
#C  1.5516315e-010    7      1.19633    0.800044    0.396289     2.08914 
      1.817    0.272138  5.16315e-012 
#C  1.6885025e-010    7      1.19663    0.800032    0.396597     2.11852 
    1.78436    0.334168  1.88503e-011 
#C  1.8773958e-010    7      1.19699    0.800038    0.396955     2.15169 
    1.75659    0.395095  3.77396e-011 
#C  2.0921693e-010    7      1.19736    0.800053    0.397305     2.17628 
    1.74344    0.432843  5.92169e-011 
#C  2.2922256e-010    7      1.19767    0.800063     0.39761     2.19144 
    1.74041    0.451032  7.92226e-011 
#C  2.5375000e-010    7      1.19805    0.800067    0.397982      2.2023 
    1.75107    0.451227  1.0375e-010 
#C  2.6000000e-010    7      1.04513    0.983037   0.0620976     2.20439 
    1.75456    0.449833    1.1e-010 
#C  2.6286240e-010    7     0.969975     1.06782   -0.097846     2.20535 
    1.75616    0.449194  1.12862e-010 
#C  2.6625000e-010    7     0.867512     1.15904   -0.291531     2.20649 
    1.75805    0.448438  1.1625e-010 
#C  2.6894957e-010    7      0.83535     1.16882   -0.333468     2.20739 
    1.75956    0.447836  1.1895e-010 
#C  2.7099719e-010    7     0.816983     1.17427   -0.357289     2.20803 
    1.76065    0.447383  1.20997e-010 
#C  2.7522742e-010    7     0.802125     1.18134   -0.379214     2.20857 
    1.76206    0.446509  1.25227e-010 
#C  2.8028766e-010    7     0.799634     1.18602   -0.386385     2.20921 
    1.76374    0.445464  1.30288e-010 
#C  2.8527072e-010    7     0.800378     1.18901    -0.38863     2.20984 
     1.7654    0.444435  1.35271e-010 
#C  2.9224218e-010    7     0.800701     1.19171    -0.39101     2.21035 
     1.7667    0.443649  1.42242e-010 
#C  2.9763067e-010    7     0.800611     1.19316   -0.392551     2.21038 
    1.76667    0.443714  1.47631e-010 
#C  3.0429504e-010    7     0.800457     1.19455    -0.39409     2.21039 
     1.7666    0.443794  1.54295e-010 
#C  3.0911664e-010    7     0.800167     1.19527     -0.3951     2.21035 
     1.7665    0.443853  1.59117e-010 
#C  3.1613384e-010    7     0.799613     1.19602    -0.39641     2.21029 
    1.76603    0.444263  1.66134e-010 
#C  3.2152365e-010    7     0.799377      1.1965   -0.397125     2.21031 
    1.76525    0.445062  1.71524e-010 
#C  3.2981540e-010    7     0.799606     1.19725   -0.397643     2.21018 
    1.76373    0.446458  1.79815e-010 
#C  3.3647608e-010    7     0.799934     1.19783   -0.397892     2.21005 
    1.76203    0.448018  1.86476e-010 
#C  3.4526706e-010    7     0.800202     1.19847   -0.398263     2.21014 
    1.75972     0.45042  1.95267e-010 
#C  3.5405362e-010    7     0.800273     1.19894   -0.398667     2.21066 
    1.75817    0.452489  2.04054e-010 
#C  3.6550756e-010    7     0.800275     1.19942   -0.399147     2.21074 
    1.75962     0.45112  2.15508e-010 
#C  3.7434813e-010    7     0.800254     1.19974   -0.399485     2.20456 
    1.76888    0.435675  2.24348e-010 
#C  3.8454547e-010    7     0.800207     1.20007   -0.399864     2.18336 
    1.79184    0.391517  2.34545e-010 
#C  3.9803452e-010    7     0.800155      1.2005   -0.400345     2.11564 
    1.84862    0.267011  2.48035e-010 
#C  4.0848665e-010    7     0.800147     1.20084   -0.400688     2.04954 
    1.90229    0.147256  8.48665e-012 
#C  4.2134785e-010    7     0.800177      1.2012   -0.401026     1.97062 
    1.96991  0.00070991  2.13478e-011 
#C  4.3500812e-010    7     0.800208     1.20139   -0.401186     1.90685 
    2.03449   -0.127638  3.50081e-011 
#C  4.5322778e-010    7     0.800185     1.20112    -0.40093     1.84903 
    2.10053   -0.251498  5.32278e-011 
#C  4.6838412e-010    7     0.800118     1.20051   -0.400389     1.81317 
    2.13732    -0.32415  6.83841e-011 
#C  4.8592582e-010    7     0.800073     1.19991   -0.399841     1.77794 
    2.16318   -0.385242  8.59258e-011 
#C  5.0630603e-010    7     0.800065     1.19963   -0.399561     1.76094 
    2.17957   -0.418632  1.06306e-010 
#C  5.3106726e-010    7      0.80005     1.19951   -0.399459     1.76641 
    2.19223   -0.425814  1.31067e-010 
#C  5.5528825e-010    7     0.800029     1.19943   -0.399398     1.77344 
    2.19844   -0.425001  1.55288e-010 
#C  5.8206440e-010    7     0.800015     1.19935    -0.39934     1.77049 
    2.20266   -0.432168  1.82064e-010 
#C  6.1206440e-010    7     0.800008     1.19931   -0.399305     1.76459 
    2.20831    -0.44372  2.12064e-010 
#C  6.4206440e-010    7     0.800004     1.19929    -0.39929     1.75672 
     2.2108    -0.45408  2.42064e-010 
#C  6.7206440e-010    7     0.800002     1.19928   -0.399283      1.7505 
    2.21115    -0.46065  2.20644e-011 
#C  7.0206440e-010    7     0.800001     1.19928   -0.399279     1.74957 
    2.21264   -0.463076  5.20644e-011 
#C  7.3206440e-010    7          0.8     1.19928   -0.399277      1.7515 
    2.21459   -0.463085  8.20644e-011 
#C  7.6206440e-010    7          0.8     1.19928   -0.399276      1.7536 
    2.21607   -0.462475  1.12064e-010 
#C  7.9206440e-010    7          0.8     1.19928   -0.399276      1.7548 
     2.2168   -0.461996  1.42064e-010 
#C  8.2206440e-010    7          0.8     1.19928   -0.399276     1.75492 
    2.21669   -0.461769  1.72064e-010 
#C  8.5206440e-010    7          0.8     1.19928   -0.399276     1.75451 
    2.21621   -0.461699  2.02064e-010 
#C  8.7875000e-010    7     0.800001     1.19928   -0.399278     1.75433 
      2.216    -0.46167  2.2875e-010 
#C  8.8500000e-010    7     0.980234     1.02055  -0.0403115     1.75435 
    2.21601   -0.461662   2.35e-010 
#C  8.8803199e-010    7      1.07296    0.925552    0.147404     1.75436 
    2.21602   -0.461658  2.38032e-010 
#C  8.9125000e-010    7      1.16705    0.822926     0.34412     1.75437 
    2.21603   -0.461654  2.4125e-010 
#C  8.9413437e-010    7       1.1797    0.810855    0.368845     1.75438 
    2.21603   -0.461651  2.44134e-010 
#C  8.9604640e-010    7      1.18548    0.806464    0.379016     1.75439 
    2.21604   -0.461648  2.46046e-010 
#C  9.0032951e-010    7      1.19454    0.802346    0.392197     1.75445 
    2.21609   -0.461641  3.2951e-013 
#C  9.0583557e-010    7      1.20179     0.80117    0.400621     1.75451 
    2.21615   -0.461633  5.83557e-012 
#C  9.1213743e-010    7      1.20488    0.800638    0.404247     1.75459 
    2.21622   -0.461623  1.21374e-011 
#C  9.2130907e-010    7      1.20265     0.79967    0.402975     1.75475 
    2.21636   -0.461611  2.13091e-011 
#C  9.2709720e-010    7      1.20023    0.799435    0.400796     1.75486 
    2.21646   -0.461604  2.70972e-011 
#C  9.3692666e-010    7       1.1985    0.799662    0.398837     1.75504 
    2.21663   -0.461592  3.69267e-011 
#C  9.4353655e-010    7      1.19857     0.79988    0.398688     1.75515 
    2.21673   -0.461589  4.35366e-011 
#C  9.5403563e-010    7      1.19914    0.800064    0.399072     1.75528 
    2.21688   -0.461595  5.40356e-011 
#C  9.6293001e-010    7      1.19946    0.800085    0.399372     1.75551 
    2.21714   -0.461624  6.293e-011 
#C  9.7270370e-010    7      1.19948    0.800049    0.399436     1.75625 
     2.2178   -0.461555  7.27037e-011 
#C  9.8380351e-010    7      1.19935    0.800012    0.399337     1.76037 
    2.21911   -0.458744  8.38035e-011 
#C  9.9615626e-010    7      1.19926    0.799998    0.399258     1.77471 
    2.21474   -0.440028  9.61563e-011 
#C  1.0037500e-009    7      1.19925    0.799999    0.399254     1.79139 
    2.20177   -0.410381  1.0375e-010 
#C  1.0100000e-009    7      1.02067    0.980248   0.0404249     1.81096 
    2.18159   -0.370632    1.1e-010 
#C  1.0119655e-009    7     0.959719     1.04017   -0.080448     1.81712 
    2.17525   -0.358131  1.11966e-010 
#C  1.0162500e-009    7      0.82294     1.16721   -0.344269     1.83394 
    2.15435    -0.32041  1.1625e-010 
#C  1.0188736e-009    7     0.811289     1.17913   -0.367846     1.84505 
    2.13989   -0.294844  1.18874e-010 
#C  1.0210087e-009    7     0.806268     1.18561   -0.379346     1.85419 
     2.1279   -0.273707  1.21009e-010 
#C  1.0255330e-009    7     0.802104     1.19496   -0.392858     1.87522 
    2.09906   -0.223842  1.25533e-010 
#C  1.0309144e-009    7     0.801118     1.20184   -0.400726     1.90083 
    2.06342    -0.16259  1.30914e-010 
#C  1.0373042e-009    7     0.800632     1.20486   -0.404232     1.93157 
    2.02101  -0.0894429  1.37304e-010 
#C  1.0461817e-009    7     0.799699     1.20265   -0.402955     1.97318 
    1.96516  0.00802004  1.46182e-010 
#C  1.0522627e-009    7     0.799431     1.20019   -0.400756      2.0002 
    1.93082   0.0693864  1.52263e-010 
#C  1.0618255e-009    7     0.799651     1.19855   -0.398896      2.0396 
     1.8844    0.155203  1.61825e-010 
#C  1.0685572e-009    7     0.799882     1.19861   -0.398727     2.06347 
    1.86016    0.203315  1.68557e-010 
#C  1.0805427e-009    7     0.800081     1.19919   -0.399114     2.09979 
    1.82706    0.272735  1.80543e-010 
#C  1.0885420e-009    7     0.800089     1.19945   -0.399362     2.11908 
    1.80988    0.309203  1.88542e-010 
#C  1.0992135e-009    7     0.800046     1.19946   -0.399415     2.14097 
    1.79015    0.350823  1.99213e-010 
#C  1.1103776e-009    7      0.80001     1.19933   -0.399322      2.1579 
    1.78147    0.376435  2.10378e-010 
#C  1.1231519e-009    7     0.799997     1.19926   -0.399258     2.16528 
    1.79377    0.371505  2.23152e-010 
#C  1.1287500e-009    7     0.799998     1.19926   -0.399259     2.16155 
    1.80739    0.354162  2.2875e-010 
#C  1.1350000e-009    7     0.980249     1.02068  -0.0404334      2.1441 
    1.83429    0.309803   2.35e-010 
#C  1.1368183e-009    7      1.03562    0.964409   0.0712147     2.13902 
    1.84212    0.296898  2.36818e-010 
#C  1.1412500e-009    7      1.16724    0.822953    0.344289     2.12429 
    1.86256    0.261728  2.4125e-010 
#C  1.1438469e-009    7      1.17911    0.811347    0.367761     2.11147 
    1.87697    0.234509  2.43847e-010 
#C  1.1460127e-009    7      1.18569    0.806243    0.379443      2.1006 
    1.88901    0.211599  2.46013e-010 
#C  1.1505722e-009    7      1.19507    0.802076    0.392994      2.0749 
    1.91471     0.16019  5.7219e-013 
#C  1.1559347e-009    7      1.20189    0.801115    0.400773     2.04286 
    1.94485    0.098008  5.93466e-012 
#C  1.1623741e-009    7      1.20487    0.800619    0.404251     2.00365 
    1.97905   0.0246042  1.23741e-011 
#C  1.1712413e-009    7      1.20261    0.799688    0.402927     1.95107 
    2.02159  -0.0705282  2.12413e-011 
#C  1.1773165e-009    7      1.20016     0.79943    0.400731     1.91858 
    2.04652    -0.12794  2.73165e-011 
#C  1.1868809e-009    7      1.19854    0.799655    0.398887      1.8723 
    2.08027   -0.207972  3.68809e-011 
#C  1.1936214e-009    7      1.19861    0.799885    0.398727     1.84774 
    2.09891   -0.251166  4.36214e-011 
#C  1.2055899e-009    7       1.1992    0.800082    0.399118     1.81436 
    2.12623   -0.311867  5.55899e-011 
#C  1.2136140e-009    7      1.19945    0.800089    0.399365     1.79749 
    2.14105   -0.343561  6.3614e-011 
#C  1.2242350e-009    7      1.19946    0.800046    0.399415     1.77861 
    2.15772   -0.379111  7.4235e-011 
#C  1.2353528e-009    7      1.19933     0.80001    0.399321     1.77005 
    2.16905   -0.399005  8.53528e-011 
#C  1.2481400e-009    7      1.19925    0.799997    0.399258     1.78051 
    2.16802   -0.387512  9.814e-011 
#C  1.2615276e-009    7      1.19927    0.799999    0.399267     1.82391 
    2.13256   -0.308654  1.11528e-010 
#C  1.2769271e-009    7      1.19929    0.800002    0.399293     1.90362 
    2.05247   -0.148846  1.26927e-010 
#C  1.2935254e-009    7       1.1993    0.800002    0.399296     1.99432 
    1.95362   0.0406964  1.43525e-010 
#C  1.3111754e-009    7      1.19929    0.800002    0.399285     2.06991 
    1.87188    0.198025  1.61175e-010 
#C  1.3292798e-009    7      1.19928    0.800001    0.399277     2.12072 
    1.81696     0.30376  1.7928e-010 
#C  1.3592798e-009    7      1.19928    0.800001    0.399276     2.16445 
    1.76902    0.395436  2.0928e-010 
#C  1.3787500e-009    7      1.19928         0.8    0.399277     2.17988 
    1.75213    0.427753  2.2875e-010 
#C  1.3850000e-009    7      1.02056    0.980236   0.0403265     2.18181 
     1.7528    0.429013   2.35e-010 
#C  1.3876793e-009    7     0.936827     1.06216   -0.125328     2.18264 
    1.75309    0.429554  2.37679e-010 
#C  1.3912500e-009    7     0.822909     1.16709   -0.344182     2.18374 
    1.75347    0.430274  2.4125e-010 
#C  1.3940276e-009    7     0.811023     1.17947   -0.368445      2.1846 
    1.75377    0.430834  2.44028e-010 
#C  1.3960151e-009    7     0.806412      1.1855   -0.379093     2.18521 
    1.75407    0.431141  2.46015e-010 
#C  1.4003714e-009    7     0.802273     1.19468   -0.392404     2.18639 
    1.75591    0.430471  3.71418e-013 
#C  1.4058288e-009    7     0.801158     1.20181   -0.400657     2.18786 
    1.75823    0.429632  5.82881e-012 
#C  1.4121342e-009    7     0.800641     1.20488   -0.404242     2.18957 
    1.76091    0.428658  1.21342e-011 
#C  1.4212195e-009    7      0.79968     1.20265   -0.402966     2.19225 
     1.7642    0.428051  2.12195e-011 
#C  1.4271280e-009    7     0.799426     1.20021    -0.40078     2.19419 
    1.76504    0.429144  2.7128e-011 
#C  1.4368337e-009    7     0.799654     1.19852   -0.398866     2.19749 
    1.76622    0.431268  3.68337e-011 
#C  1.4435349e-009    7     0.799882     1.19859   -0.398707     2.19986 
    1.76582    0.434043  4.35349e-011 
#C  1.4551789e-009    7     0.800077     1.19918   -0.399102     2.20334 
    1.76457    0.438774  5.51789e-011 
#C  1.4635208e-009    7     0.800087     1.19945   -0.399365     2.20533 
    1.76378    0.441551  6.35208e-011 
#C  1.4739040e-009    7     0.800046     1.19947   -0.399419     2.20801 
    1.76319    0.444812  7.3904e-011 
#C  1.4850083e-009    7      0.80001     1.19933   -0.399325     2.21074 
    1.76757     0.44317  8.50083e-011 
#C  1.4977729e-009    7     0.799997     1.19925   -0.399257     2.20574 
    1.78457    0.421173  9.77729e-011 
#C  1.5037500e-009    7     0.799998     1.19925   -0.399256     2.19567 
    1.79807    0.397598  1.0375e-010 
#C  1.5100000e-009    7     0.980248     1.02067  -0.0404236     2.17283 
    1.81902    0.353809    1.1e-010 
#C  1.5118472e-009    7      1.03652    0.963481   0.0730341     2.16608 
    1.82522    0.340867  1.11847e-010 
#C  1.5162500e-009    7      1.16724    0.822947     0.34429      2.1467 
    1.84142    0.305277  1.1625e-010 
#C  1.5188519e-009    7      1.17912    0.811335    0.367782     2.13137 
    1.85268    0.278693  1.18852e-010 
#C  1.5210118e-009    7      1.18568    0.806249     0.37943      2.1185 
     1.8621    0.256401  1.21012e-010 
#C  1.5255643e-009    7      1.19506    0.802084    0.392976      2.0891 
    1.88311    0.205988  1.25564e-010 
#C  1.5309295e-009    7      1.20189    0.801117    0.400772     2.05307 
    1.90851    0.144564  1.30929e-010 
#C  1.5373631e-009    7      1.20487     0.80062    0.404252     2.01038 
    1.93922   0.0711627  1.37363e-010 
#C  1.5462379e-009    7      1.20261    0.799688    0.402926     1.95488 
     1.9806  -0.0257211  1.46238e-010 
#C  1.5523163e-009    7      1.20016    0.799429    0.400729     1.92166 
    2.00726  -0.0856072  1.52316e-010 
#C  1.5618777e-009    7      1.19854    0.799655    0.398886      1.8761 
    2.04671   -0.170606  1.61878e-010 
#C  1.5686116e-009    7      1.19861    0.799885    0.398727     1.85272 
    2.07043   -0.217706  1.68612e-010 
#C  1.5806020e-009    7       1.1992    0.800082    0.399119     1.82116 
    2.10629   -0.285134  1.80602e-010 
#C  1.5885871e-009    7      1.19945    0.800089    0.399365     1.80477 
    2.12516   -0.320391  1.88587e-010 
#C  1.5992332e-009    7      1.19946    0.800045    0.399415     1.78605 
    2.14629   -0.360242  1.99233e-010 
#C  1.6104185e-009    7      1.19933     0.80001    0.399321      1.7784 
    2.16238   -0.383981  2.10419e-010 
#C  1.6231857e-009    7      1.19925    0.799997    0.399258     1.79184 
    2.16858   -0.376741  2.23186e-010 
#C  1.6287500e-009    7      1.19926    0.799998    0.399258     1.80577 
     2.1645   -0.358733  2.2875e-010 
#C  1.6350000e-009    7      1.02068    0.980248    0.040436      1.8329 
    2.14641   -0.313505   2.35e-010 
#C  1.6368157e-009    7     0.964494     1.03554  -0.0710502     1.84079 
    2.14115   -0.300365  2.36816e-010 
#C  1.6412500e-009    7     0.822952     1.16725   -0.344295     1.86129 
    2.12605   -0.264758  2.4125e-010 
#C  1.6438499e-009    7     0.811339     1.17912   -0.367782     1.87564 
    2.11299   -0.237349  2.4385e-010 
#C  1.6460153e-009    7     0.806238     1.18569   -0.379454     1.88761 
    2.10192   -0.214314  2.46015e-010 
#C  1.6505771e-009    7     0.802071     1.19507   -0.393001     1.91308 
    2.07576   -0.162682  5.77091e-013 
#C  1.6559399e-009    7     0.801111     1.20188   -0.400772     1.94282 
    2.04313   -0.100311  5.93993e-012 
