! Touchstone file from project 
# GHZ S MA R 50.000000
! Modal data exported
1.000000E-002    2.801200E-001    -2.070761E+000   6.249069E-001    9.280755E-001    6.249069E-001    9.280755E-001    2.801200E-001    -2.070761E+000   
! Port Impedance  5.000000E+001    0.000000E+000    5.000000E+001    0.000000E+000    

2.000000E-002    2.797316E-001    -4.138135E+000   6.260851E-001    1.847610E+000    6.260851E-001    1.847610E+000    2.797316E-001    -4.138135E+000   
! Port Impedance  5.000000E+001    0.000000E+000    5.000000E+001    0.000000E+000    

3.000000E-002    2.790879E-001    -6.198770E+000   6.280292E-001    2.750338E+000    6.280292E-001    2.750338E+000    2.790879E-001    -6.198770E+000   
! Port Impedance  5.000000E+001    0.000000E+000    5.000000E+001    0.000000E+000    

4.000000E-002    2.781946E-001    -8.249394E+000   6.307102E-001    3.628521E+000    6.307102E-001    3.628521E+000    2.781946E-001    -8.249394E+000   
! Port Impedance  5.000000E+001    0.000000E+000    5.000000E+001    0.000000E+000    

5.000000E-002    2.770589E-001    -1.028684E+001   6.340896E-001    4.475171E+000    6.340896E-001    4.475171E+000    2.770589E-001    -1.028684E+001   
! Port Impedance  5.000000E+001    0.000000E+000    5.000000E+001    0.000000E+000    

6.000000E-002    2.756904E-001    -1.230810E+001   6.381200E-001    5.284218E+000    6.381200E-001    5.284218E+000    2.756904E-001    -1.230810E+001   
! Port Impedance  5.000000E+001    0.000000E+000    5.000000E+001    0.000000E+000    

7.000000E-002    2.741000E-001    -1.431031E+001   6.427476E-001    6.050626E+000    6.427476E-001    6.050626E+000    2.741000E-001    -1.431031E+001   
! Port Impedance  5.000000E+001    0.000000E+000    5.000000E+001    0.000000E+000    

8.000000E-002    2.723000E-001    -1.629082E+001   6.479130E-001    6.770451E+000    6.479130E-001    6.770451E+000    2.723000E-001    -1.629082E+001   
! Port Impedance  5.000000E+001    0.000000E+000    5.000000E+001    0.000000E+000    

9.000000E-002    2.703040E-001    -1.824719E+001   6.535538E-001    7.440844E+000    6.535538E-001    7.440844E+000    2.703040E-001    -1.824719E+001   
! Port Impedance  5.000000E+001    0.000000E+000    5.000000E+001    0.000000E+000    

1.000000E-001    2.681264E-001    -2.017722E+001   6.596061E-001    8.060012E+000    6.596061E-001    8.060012E+000    2.681264E-001    -2.017722E+001   
! Port Impedance  5.000000E+001    0.000000E+000    5.000000E+001    0.000000E+000    

1.100000E-001    2.657823E-001    -2.207893E+001   6.660058E-001    8.627131E+000    6.660058E-001    8.627131E+000    2.657823E-001    -2.207893E+001   
! Port Impedance  5.000000E+001    0.000000E+000    5.000000E+001    0.000000E+000    

1.200000E-001    2.632872E-001    -2.395059E+001   6.726900E-001    9.142250E+000    6.726900E-001    9.142250E+000    2.632872E-001    -2.395059E+001   
! Port Impedance  5.000000E+001    0.000000E+000    5.000000E+001    0.000000E+000    

1.300000E-001    2.606567E-001    -2.579072E+001   6.795987E-001    9.606163E+000    6.795987E-001    9.606163E+000    2.606567E-001    -2.579072E+001   
! Port Impedance  5.000000E+001    0.000000E+000    5.000000E+001    0.000000E+000    

1.400000E-001    2.579063E-001    -2.759806E+001   6.866747E-001    1.002029E+001    6.866747E-001    1.002029E+001    2.579063E-001    -2.759806E+001   
! Port Impedance  5.000000E+001    0.000000E+000    5.000000E+001    0.000000E+000    

1.500000E-001    2.550514E-001    -2.937161E+001   6.938654E-001    1.038653E+001    6.938654E-001    1.038653E+001    2.550514E-001    -2.937161E+001   
! Port Impedance  5.000000E+001    0.000000E+000    5.000000E+001    0.000000E+000    

1.600000E-001    2.521067E-001    -3.111056E+001   7.011221E-001    1.070718E+001    7.011221E-001    1.070718E+001    2.521067E-001    -3.111056E+001   
! Port Impedance  5.000000E+001    0.000000E+000    5.000000E+001    0.000000E+000    

1.700000E-001    2.490868E-001    -3.281433E+001   7.084011E-001    1.098479E+001    7.084011E-001    1.098479E+001    2.490868E-001    -3.281433E+001   
! Port Impedance  5.000000E+001    0.000000E+000    5.000000E+001    0.000000E+000    

1.800000E-001    2.460050E-001    -3.448253E+001   7.156636E-001    1.122208E+001    7.156636E-001    1.122208E+001    2.460050E-001    -3.448253E+001   
! Port Impedance  5.000000E+001    0.000000E+000    5.000000E+001    0.000000E+000    

1.900000E-001    2.428745E-001    -3.611496E+001   7.228752E-001    1.142187E+001    7.228752E-001    1.142187E+001    2.428745E-001    -3.611496E+001   
! Port Impedance  5.000000E+001    0.000000E+000    5.000000E+001    0.000000E+000    

2.000000E-001    2.397072E-001    -3.771156E+001   7.300064E-001    1.158699E+001    7.300064E-001    1.158699E+001    2.397072E-001    -3.771156E+001   
! Port Impedance  5.000000E+001    0.000000E+000    5.000000E+001    0.000000E+000    

2.100000E-001    2.365145E-001    -3.927244E+001   7.370318E-001    1.172025E+001    7.370318E-001    1.172025E+001    2.365145E-001    -3.927244E+001   
! Port Impedance  5.000000E+001    0.000000E+000    5.000000E+001    0.000000E+000    

2.200000E-001    2.333065E-001    -4.079783E+001   7.439302E-001    1.182438E+001    7.439302E-001    1.182438E+001    2.333065E-001    -4.079783E+001   
! Port Impedance  5.000000E+001    0.000000E+000    5.000000E+001    0.000000E+000    

2.300000E-001    2.300928E-001    -4.228808E+001   7.506843E-001    1.190201E+001    7.506843E-001    1.190201E+001    2.300928E-001    -4.228808E+001   
! Port Impedance  5.000000E+001    0.000000E+000    5.000000E+001    0.000000E+000    

2.400000E-001    2.268821E-001    -4.374364E+001   7.572798E-001    1.195563E+001    7.572798E-001    1.195563E+001    2.268821E-001    -4.374364E+001   
! Port Impedance  5.000000E+001    0.000000E+000    5.000000E+001    0.000000E+000    

2.500000E-001    2.236819E-001    -4.516504E+001   7.637057E-001    1.198762E+001    7.637057E-001    1.198762E+001    2.236819E-001    -4.516504E+001   
! Port Impedance  5.000000E+001    0.000000E+000    5.000000E+001    0.000000E+000    

2.600000E-001    2.204994E-001    -4.655289E+001   7.699537E-001    1.200017E+001    7.699537E-001    1.200017E+001    2.204994E-001    -4.655289E+001   
! Port Impedance  5.000000E+001    0.000000E+000    5.000000E+001    0.000000E+000    

2.700000E-001    2.173405E-001    -4.790787E+001   7.760179E-001    1.199534E+001    7.760179E-001    1.199534E+001    2.173405E-001    -4.790787E+001   
! Port Impedance  5.000000E+001    0.000000E+000    5.000000E+001    0.000000E+000    

2.800000E-001    2.142109E-001    -4.923068E+001   7.818944E-001    1.197502E+001    7.818944E-001    1.197502E+001    2.142109E-001    -4.923068E+001   
! Port Impedance  5.000000E+001    0.000000E+000    5.000000E+001    0.000000E+000    

2.900000E-001    2.111152E-001    -5.052209E+001   7.875812E-001    1.194096E+001    7.875812E-001    1.194096E+001    2.111152E-001    -5.052209E+001   
! Port Impedance  5.000000E+001    0.000000E+000    5.000000E+001    0.000000E+000    

3.000000E-001    2.080575E-001    -5.178288E+001   7.930777E-001    1.189476E+001    7.930777E-001    1.189476E+001    2.080575E-001    -5.178288E+001   
! Port Impedance  5.000000E+001    0.000000E+000    5.000000E+001    0.000000E+000    

3.100000E-001    2.050413E-001    -5.301386E+001   7.983846E-001    1.183788E+001    7.983846E-001    1.183788E+001    2.050413E-001    -5.301386E+001   
! Port Impedance  5.000000E+001    0.000000E+000    5.000000E+001    0.000000E+000    

3.200000E-001    2.020697E-001    -5.421584E+001   8.035039E-001    1.177164E+001    8.035039E-001    1.177164E+001    2.020697E-001    -5.421584E+001   
! Port Impedance  5.000000E+001    0.000000E+000    5.000000E+001    0.000000E+000    

3.300000E-001    1.991451E-001    -5.538967E+001   8.084383E-001    1.169726E+001    8.084383E-001    1.169726E+001    1.991451E-001    -5.538967E+001   
! Port Impedance  5.000000E+001    0.000000E+000    5.000000E+001    0.000000E+000    

3.400000E-001    1.962695E-001    -5.653616E+001   8.131912E-001    1.161582E+001    8.131912E-001    1.161582E+001    1.962695E-001    -5.653616E+001   
! Port Impedance  5.000000E+001    0.000000E+000    5.000000E+001    0.000000E+000    

3.500000E-001    1.934446E-001    -5.765615E+001   8.177667E-001    1.152829E+001    8.177667E-001    1.152829E+001    1.934446E-001    -5.765615E+001   
! Port Impedance  5.000000E+001    0.000000E+000    5.000000E+001    0.000000E+000    

3.600000E-001    1.906717E-001    -5.875045E+001   8.221693E-001    1.143558E+001    8.221693E-001    1.143558E+001    1.906717E-001    -5.875045E+001   
! Port Impedance  5.000000E+001    0.000000E+000    5.000000E+001    0.000000E+000    

3.700000E-001    1.879516E-001    -5.981989E+001   8.264039E-001    1.133847E+001    8.264039E-001    1.133847E+001    1.879516E-001    -5.981989E+001   
! Port Impedance  5.000000E+001    0.000000E+000    5.000000E+001    0.000000E+000    

3.800000E-001    1.852852E-001    -6.086525E+001   8.304755E-001    1.123766E+001    8.304755E-001    1.123766E+001    1.852852E-001    -6.086525E+001   
! Port Impedance  5.000000E+001    0.000000E+000    5.000000E+001    0.000000E+000    

3.900000E-001    1.826727E-001    -6.188732E+001   8.343894E-001    1.113381E+001    8.343894E-001    1.113381E+001    1.826727E-001    -6.188732E+001   
! Port Impedance  5.000000E+001    0.000000E+000    5.000000E+001    0.000000E+000    

4.000000E-001    1.801143E-001    -6.288687E+001   8.381510E-001    1.102747E+001    8.381510E-001    1.102747E+001    1.801143E-001    -6.288687E+001   
! Port Impedance  5.000000E+001    0.000000E+000    5.000000E+001    0.000000E+000    

4.100000E-001    1.776101E-001    -6.386465E+001   8.417657E-001    1.091916E+001    8.417657E-001    1.091916E+001    1.776101E-001    -6.386465E+001   
! Port Impedance  5.000000E+001    0.000000E+000    5.000000E+001    0.000000E+000    

4.200000E-001    1.751597E-001    -6.482137E+001   8.452389E-001    1.080932E+001    8.452389E-001    1.080932E+001    1.751597E-001    -6.482137E+001   
! Port Impedance  5.000000E+001    0.000000E+000    5.000000E+001    0.000000E+000    

4.300000E-001    1.727630E-001    -6.575775E+001   8.485760E-001    1.069836E+001    8.485760E-001    1.069836E+001    1.727630E-001    -6.575775E+001   
! Port Impedance  5.000000E+001    0.000000E+000    5.000000E+001    0.000000E+000    

4.400000E-001    1.704194E-001    -6.667448E+001   8.517824E-001    1.058662E+001    8.517824E-001    1.058662E+001    1.704194E-001    -6.667448E+001   
! Port Impedance  5.000000E+001    0.000000E+000    5.000000E+001    0.000000E+000    

4.500000E-001    1.681283E-001    -6.757221E+001   8.548631E-001    1.047443E+001    8.548631E-001    1.047443E+001    1.681283E-001    -6.757221E+001   
! Port Impedance  5.000000E+001    0.000000E+000    5.000000E+001    0.000000E+000    

4.600000E-001    1.658890E-001    -6.845159E+001   8.578234E-001    1.036205E+001    8.578234E-001    1.036205E+001    1.658890E-001    -6.845159E+001   
! Port Impedance  5.000000E+001    0.000000E+000    5.000000E+001    0.000000E+000    

4.700000E-001    1.637009E-001    -6.931324E+001   8.606681E-001    1.024973E+001    8.606681E-001    1.024973E+001    1.637009E-001    -6.931324E+001   
! Port Impedance  5.000000E+001    0.000000E+000    5.000000E+001    0.000000E+000    

4.800000E-001    1.615630E-001    -7.015775E+001   8.634021E-001    1.013769E+001    8.634021E-001    1.013769E+001    1.615630E-001    -7.015775E+001   
! Port Impedance  5.000000E+001    0.000000E+000    5.000000E+001    0.000000E+000    

4.900000E-001    1.594745E-001    -7.098572E+001   8.660300E-001    1.002611E+001    8.660300E-001    1.002611E+001    1.594745E-001    -7.098572E+001   
! Port Impedance  5.000000E+001    0.000000E+000    5.000000E+001    0.000000E+000    

5.000000E-001    1.574345E-001    -7.179768E+001   8.685565E-001    9.915152E+000    8.685565E-001    9.915152E+000    1.574345E-001    -7.179768E+001   
! Port Impedance  5.000000E+001    0.000000E+000    5.000000E+001    0.000000E+000    

5.100000E-001    1.554420E-001    -7.259418E+001   8.709857E-001    9.804961E+000    8.709857E-001    9.804961E+000    1.554420E-001    -7.259418E+001   
! Port Impedance  5.000000E+001    0.000000E+000    5.000000E+001    0.000000E+000    

5.200000E-001    1.534961E-001    -7.337573E+001   8.733219E-001    9.695657E+000    8.733219E-001    9.695657E+000    1.534961E-001    -7.337573E+001   
! Port Impedance  5.000000E+001    0.000000E+000    5.000000E+001    0.000000E+000    

5.300000E-001    1.515957E-001    -7.414283E+001   8.755691E-001    9.587347E+000    8.755691E-001    9.587347E+000    1.515957E-001    -7.414283E+001   
! Port Impedance  5.000000E+001    0.000000E+000    5.000000E+001    0.000000E+000    

5.400000E-001    1.497399E-001    -7.489596E+001   8.777311E-001    9.480120E+000    8.777311E-001    9.480120E+000    1.497399E-001    -7.489596E+001   
! Port Impedance  5.000000E+001    0.000000E+000    5.000000E+001    0.000000E+000    

5.500000E-001    1.479276E-001    -7.563557E+001   8.798117E-001    9.374054E+000    8.798117E-001    9.374054E+000    1.479276E-001    -7.563557E+001   
! Port Impedance  5.000000E+001    0.000000E+000    5.000000E+001    0.000000E+000    

5.600000E-001    1.461578E-001    -7.636210E+001   8.818144E-001    9.269212E+000    8.818144E-001    9.269212E+000    1.461578E-001    -7.636210E+001   
! Port Impedance  5.000000E+001    0.000000E+000    5.000000E+001    0.000000E+000    

5.700000E-001    1.444295E-001    -7.707597E+001   8.837426E-001    9.165648E+000    8.837426E-001    9.165648E+000    1.444295E-001    -7.707597E+001   
! Port Impedance  5.000000E+001    0.000000E+000    5.000000E+001    0.000000E+000    

5.800000E-001    1.427417E-001    -7.777760E+001   8.855995E-001    9.063407E+000    8.855995E-001    9.063407E+000    1.427417E-001    -7.777760E+001   
! Port Impedance  5.000000E+001    0.000000E+000    5.000000E+001    0.000000E+000    

5.900000E-001    1.410934E-001    -7.846736E+001   8.873883E-001    8.962525E+000    8.873883E-001    8.962525E+000    1.410934E-001    -7.846736E+001   
! Port Impedance  5.000000E+001    0.000000E+000    5.000000E+001    0.000000E+000    

6.000000E-001    1.394835E-001    -7.914564E+001   8.891118E-001    8.863029E+000    8.891118E-001    8.863029E+000    1.394835E-001    -7.914564E+001   
! Port Impedance  5.000000E+001    0.000000E+000    5.000000E+001    0.000000E+000    

6.100000E-001    1.379111E-001    -7.981279E+001   8.907729E-001    8.764941E+000    8.907729E-001    8.764941E+000    1.379111E-001    -7.981279E+001   
! Port Impedance  5.000000E+001    0.000000E+000    5.000000E+001    0.000000E+000    

6.200000E-001    1.363753E-001    -8.046916E+001   8.923743E-001    8.668277E+000    8.923743E-001    8.668277E+000    1.363753E-001    -8.046916E+001   
! Port Impedance  5.000000E+001    0.000000E+000    5.000000E+001    0.000000E+000    

6.300000E-001    1.348750E-001    -8.111508E+001   8.939185E-001    8.573047E+000    8.939185E-001    8.573047E+000    1.348750E-001    -8.111508E+001   
! Port Impedance  5.000000E+001    0.000000E+000    5.000000E+001    0.000000E+000    

6.400000E-001    1.334094E-001    -8.175086E+001   8.954080E-001    8.479258E+000    8.954080E-001    8.479258E+000    1.334094E-001    -8.175086E+001   
! Port Impedance  5.000000E+001    0.000000E+000    5.000000E+001    0.000000E+000    

6.500000E-001    1.319776E-001    -8.237681E+001   8.968452E-001    8.386910E+000    8.968452E-001    8.386910E+000    1.319776E-001    -8.237681E+001   
! Port Impedance  5.000000E+001    0.000000E+000    5.000000E+001    0.000000E+000    

6.600000E-001    1.305786E-001    -8.299323E+001   8.982323E-001    8.296003E+000    8.982323E-001    8.296003E+000    1.305786E-001    -8.299323E+001   
! Port Impedance  5.000000E+001    0.000000E+000    5.000000E+001    0.000000E+000    

6.700000E-001    1.292116E-001    -8.360039E+001   8.995713E-001    8.206531E+000    8.995713E-001    8.206531E+000    1.292116E-001    -8.360039E+001   
! Port Impedance  5.000000E+001    0.000000E+000    5.000000E+001    0.000000E+000    

6.800000E-001    1.278756E-001    -8.419856E+001   9.008644E-001    8.118487E+000    9.008644E-001    8.118487E+000    1.278756E-001    -8.419856E+001   
! Port Impedance  5.000000E+001    0.000000E+000    5.000000E+001    0.000000E+000    

6.900000E-001    1.265700E-001    -8.478800E+001   9.021134E-001    8.031862E+000    9.021134E-001    8.031862E+000    1.265700E-001    -8.478800E+001   
! Port Impedance  5.000000E+001    0.000000E+000    5.000000E+001    0.000000E+000    

7.000000E-001    1.252938E-001    -8.536896E+001   9.033202E-001    7.946642E+000    9.033202E-001    7.946642E+000    1.252938E-001    -8.536896E+001   
! Port Impedance  5.000000E+001    0.000000E+000    5.000000E+001    0.000000E+000    

7.100000E-001    1.240463E-001    -8.594168E+001   9.044865E-001    7.862815E+000    9.044865E-001    7.862815E+000    1.240463E-001    -8.594168E+001   
! Port Impedance  5.000000E+001    0.000000E+000    5.000000E+001    0.000000E+000    

7.200000E-001    1.228267E-001    -8.650639E+001   9.056140E-001    7.780366E+000    9.056140E-001    7.780366E+000    1.228267E-001    -8.650639E+001   
! Port Impedance  5.000000E+001    0.000000E+000    5.000000E+001    0.000000E+000    

7.300000E-001    1.216343E-001    -8.706331E+001   9.067043E-001    7.699278E+000    9.067043E-001    7.699278E+000    1.216343E-001    -8.706331E+001   
! Port Impedance  5.000000E+001    0.000000E+000    5.000000E+001    0.000000E+000    

7.400000E-001    1.204682E-001    -8.761265E+001   9.077589E-001    7.619534E+000    9.077589E-001    7.619534E+000    1.204682E-001    -8.761265E+001   
! Port Impedance  5.000000E+001    0.000000E+000    5.000000E+001    0.000000E+000    

7.500000E-001    1.193279E-001    -8.815461E+001   9.087793E-001    7.541114E+000    9.087793E-001    7.541114E+000    1.193279E-001    -8.815461E+001   
! Port Impedance  5.000000E+001    0.000000E+000    5.000000E+001    0.000000E+000    

7.600000E-001    1.182126E-001    -8.868940E+001   9.097669E-001    7.464001E+000    9.097669E-001    7.464001E+000    1.182126E-001    -8.868940E+001   
! Port Impedance  5.000000E+001    0.000000E+000    5.000000E+001    0.000000E+000    

7.700000E-001    1.171216E-001    -8.921719E+001   9.107228E-001    7.388174E+000    9.107228E-001    7.388174E+000    1.171216E-001    -8.921719E+001   
! Port Impedance  5.000000E+001    0.000000E+000    5.000000E+001    0.000000E+000    

7.800000E-001    1.160543E-001    -8.973816E+001   9.116485E-001    7.313613E+000    9.116485E-001    7.313613E+000    1.160543E-001    -8.973816E+001   
! Port Impedance  5.000000E+001    0.000000E+000    5.000000E+001    0.000000E+000    

7.900000E-001    1.150101E-001    -9.025251E+001   9.125451E-001    7.240298E+000    9.125451E-001    7.240298E+000    1.150101E-001    -9.025251E+001   
! Port Impedance  5.000000E+001    0.000000E+000    5.000000E+001    0.000000E+000    

8.000000E-001    1.139883E-001    -9.076038E+001   9.134138E-001    7.168207E+000    9.134138E-001    7.168207E+000    1.139883E-001    -9.076038E+001   
! Port Impedance  5.000000E+001    0.000000E+000    5.000000E+001    0.000000E+000    

8.100000E-001    1.129883E-001    -9.126194E+001   9.142556E-001    7.097320E+000    9.142556E-001    7.097320E+000    1.129883E-001    -9.126194E+001   
! Port Impedance  5.000000E+001    0.000000E+000    5.000000E+001    0.000000E+000    

8.200000E-001    1.120096E-001    -9.175735E+001   9.150715E-001    7.027615E+000    9.150715E-001    7.027615E+000    1.120096E-001    -9.175735E+001   
! Port Impedance  5.000000E+001    0.000000E+000    5.000000E+001    0.000000E+000    

