! Touchstone file from project 
# GHZ S MA R 50.000000
! Modal data exported
1.000000E-002    2.795253E-001    -3.602713E+000   6.223138E-001    -1.576484E+000   6.223138E-001    -1.576484E+000   2.795253E-001    -3.602713E+000   
! Port Impedance  5.000000E+001    0.000000E+000    5.000000E+001    0.000000E+000    

2.000000E-002    2.782421E-001    -7.184380E+000   6.230734E-001    -3.158518E+000   6.230734E-001    -3.158518E+000   2.782421E-001    -7.184380E+000   
! Port Impedance  5.000000E+001    0.000000E+000    5.000000E+001    0.000000E+000    

3.000000E-002    2.763751E-001    -1.075841E+001   6.245805E-001    -4.761483E+000   6.245805E-001    -4.761483E+000   2.763751E-001    -1.075841E+001   
! Port Impedance  5.000000E+001    0.000000E+000    5.000000E+001    0.000000E+000    

4.000000E-002    2.738578E-001    -1.431741E+001   6.268563E-001    -6.393367E+000   6.268563E-001    -6.393367E+000   2.738578E-001    -1.431741E+001   
! Port Impedance  5.000000E+001    0.000000E+000    5.000000E+001    0.000000E+000    

5.000000E-002    2.707052E-001    -1.785676E+001   6.299053E-001    -8.062066E+000   6.299053E-001    -8.062066E+000   2.707052E-001    -1.785676E+001   
! Port Impedance  5.000000E+001    0.000000E+000    5.000000E+001    0.000000E+000    

6.000000E-002    2.669417E-001    -2.137229E+001   6.337041E-001    -9.774537E+000   6.337041E-001    -9.774537E+000   2.669417E-001    -2.137229E+001   
! Port Impedance  5.000000E+001    0.000000E+000    5.000000E+001    0.000000E+000    

7.000000E-002    2.625935E-001    -2.485990E+001   6.382061E-001    -1.153661E+001   6.382061E-001    -1.153661E+001   2.625935E-001    -2.485990E+001   
! Port Impedance  5.000000E+001    0.000000E+000    5.000000E+001    0.000000E+000    

8.000000E-002    2.576885E-001    -2.831534E+001   6.433479E-001    -1.335292E+001   6.433479E-001    -1.335292E+001   2.576885E-001    -2.831534E+001   
! Port Impedance  5.000000E+001    0.000000E+000    5.000000E+001    0.000000E+000    

9.000000E-002    2.522568E-001    -3.173422E+001   6.490569E-001    -1.522688E+001   6.490569E-001    -1.522688E+001   2.522568E-001    -3.173422E+001   
! Port Impedance  5.000000E+001    0.000000E+000    5.000000E+001    0.000000E+000    

1.000000E-001    2.463306E-001    -3.511192E+001   6.552554E-001    -1.716070E+001   6.552554E-001    -1.716070E+001   2.463306E-001    -3.511192E+001   
! Port Impedance  5.000000E+001    0.000000E+000    5.000000E+001    0.000000E+000    

1.100000E-001    2.399445E-001    -3.844358E+001   6.618648E-001    -1.915551E+001   6.618648E-001    -1.915551E+001   2.399445E-001    -3.844358E+001   
! Port Impedance  5.000000E+001    0.000000E+000    5.000000E+001    0.000000E+000    

1.200000E-001    2.331353E-001    -4.172411E+001   6.688074E-001    -2.121138E+001   6.688074E-001    -2.121138E+001   2.331353E-001    -4.172411E+001   
! Port Impedance  5.000000E+001    0.000000E+000    5.000000E+001    0.000000E+000    

1.300000E-001    2.259416E-001    -4.494809E+001   6.760083E-001    -2.332754E+001   6.760083E-001    -2.332754E+001   2.259416E-001    -4.494809E+001   
! Port Impedance  5.000000E+001    0.000000E+000    5.000000E+001    0.000000E+000    

1.400000E-001    2.184035E-001    -4.810972E+001   6.833961E-001    -2.550243E+001   6.833961E-001    -2.550243E+001   2.184035E-001    -4.810972E+001   
! Port Impedance  5.000000E+001    0.000000E+000    5.000000E+001    0.000000E+000    

1.500000E-001    2.105622E-001    -5.120280E+001   6.909045E-001    -2.773391E+001   6.909045E-001    -2.773391E+001   2.105622E-001    -5.120280E+001   
! Port Impedance  5.000000E+001    0.000000E+000    5.000000E+001    0.000000E+000    

1.600000E-001    2.024595E-001    -5.422055E+001   6.984720E-001    -3.001934E+001   6.984720E-001    -3.001934E+001   2.024595E-001    -5.422055E+001   
! Port Impedance  5.000000E+001    0.000000E+000    5.000000E+001    0.000000E+000    

1.700000E-001    1.941380E-001    -5.715556E+001   7.060425E-001    -3.235571E+001   7.060425E-001    -3.235571E+001   1.941380E-001    -5.715556E+001   
! Port Impedance  5.000000E+001    0.000000E+000    5.000000E+001    0.000000E+000    

1.800000E-001    1.856400E-001    -5.999958E+001   7.135658E-001    -3.473978E+001   7.135658E-001    -3.473978E+001   1.856400E-001    -5.999958E+001   
! Port Impedance  5.000000E+001    0.000000E+000    5.000000E+001    0.000000E+000    

1.900000E-001    1.770080E-001    -6.274339E+001   7.209973E-001    -3.716814E+001   7.209973E-001    -3.716814E+001   1.770080E-001    -6.274339E+001   
! Port Impedance  5.000000E+001    0.000000E+000    5.000000E+001    0.000000E+000    

2.000000E-001    1.682842E-001    -6.537654E+001   7.282979E-001    -3.963731E+001   7.282979E-001    -3.963731E+001   1.682842E-001    -6.537654E+001   
! Port Impedance  5.000000E+001    0.000000E+000    5.000000E+001    0.000000E+000    

2.100000E-001    1.595102E-001    -6.788710E+001   7.354340E-001    -4.214382E+001   7.354340E-001    -4.214382E+001   1.595102E-001    -6.788710E+001   
! Port Impedance  5.000000E+001    0.000000E+000    5.000000E+001    0.000000E+000    

2.200000E-001    1.507272E-001    -7.026128E+001   7.423772E-001    -4.468424E+001   7.423772E-001    -4.468424E+001   1.507272E-001    -7.026128E+001   
! Port Impedance  5.000000E+001    0.000000E+000    5.000000E+001    0.000000E+000    

2.300000E-001    1.419760E-001    -7.248304E+001   7.491039E-001    -4.725523E+001   7.491039E-001    -4.725523E+001   1.419760E-001    -7.248304E+001   
! Port Impedance  5.000000E+001    0.000000E+000    5.000000E+001    0.000000E+000    

2.400000E-001    1.332968E-001    -7.453358E+001   7.555953E-001    -4.985359E+001   7.555953E-001    -4.985359E+001   1.332968E-001    -7.453358E+001   
! Port Impedance  5.000000E+001    0.000000E+000    5.000000E+001    0.000000E+000    

2.500000E-001    1.247298E-001    -7.639067E+001   7.618365E-001    -5.247627E+001   7.618365E-001    -5.247627E+001   1.247298E-001    -7.639067E+001   
! Port Impedance  5.000000E+001    0.000000E+000    5.000000E+001    0.000000E+000    

2.600000E-001    1.163152E-001    -7.802795E+001   7.678168E-001    -5.512040E+001   7.678168E-001    -5.512040E+001   1.163152E-001    -7.802795E+001   
! Port Impedance  5.000000E+001    0.000000E+000    5.000000E+001    0.000000E+000    

2.700000E-001    1.080937E-001    -7.941399E+001   7.735287E-001    -5.778327E+001   7.735287E-001    -5.778327E+001   1.080937E-001    -7.941399E+001   
! Port Impedance  5.000000E+001    0.000000E+000    5.000000E+001    0.000000E+000    

2.800000E-001    1.001070E-001    -8.051129E+001   7.789679E-001    -6.046238E+001   7.789679E-001    -6.046238E+001   1.001070E-001    -8.051129E+001   
! Port Impedance  5.000000E+001    0.000000E+000    5.000000E+001    0.000000E+000    

2.900000E-001    9.239879E-002    -8.127518E+001   7.841328E-001    -6.315542E+001   7.841328E-001    -6.315542E+001   9.239879E-002    -8.127518E+001   
! Port Impedance  5.000000E+001    0.000000E+000    5.000000E+001    0.000000E+000    

3.000000E-001    8.501550E-002    -8.165286E+001   7.890243E-001    -6.586025E+001   7.890243E-001    -6.586025E+001   8.501550E-002    -8.165286E+001   
! Port Impedance  5.000000E+001    0.000000E+000    5.000000E+001    0.000000E+000    

3.100000E-001    7.800740E-002    -8.158277E+001   7.936454E-001    -6.857492E+001   7.936454E-001    -6.857492E+001   7.800740E-002    -8.158277E+001   
! Port Impedance  5.000000E+001    0.000000E+000    5.000000E+001    0.000000E+000    

3.200000E-001    7.142984E-002    -8.099512E+001   7.980006E-001    -7.129767E+001   7.980006E-001    -7.129767E+001   7.142984E-002    -8.099512E+001   
! Port Impedance  5.000000E+001    0.000000E+000    5.000000E+001    0.000000E+000    

3.300000E-001    6.534429E-002    -7.981449E+001   8.020964E-001    -7.402691E+001   8.020964E-001    -7.402691E+001   6.534429E-002    -7.981449E+001   
! Port Impedance  5.000000E+001    0.000000E+000    5.000000E+001    0.000000E+000    

3.400000E-001    5.981881E-002    -7.796641E+001   8.059399E-001    -7.676118E+001   8.059399E-001    -7.676118E+001   5.981881E-002    -7.796641E+001   
! Port Impedance  5.000000E+001    0.000000E+000    5.000000E+001    0.000000E+000    

3.500000E-001    5.492702E-002    -7.538998E+001   8.095398E-001    -7.949921E+001   8.095398E-001    -7.949921E+001   5.492702E-002    -7.538998E+001   
! Port Impedance  5.000000E+001    0.000000E+000    5.000000E+001    0.000000E+000    

3.600000E-001    5.074436E-002    -7.205816E+001   8.129051E-001    -8.223987E+001   8.129051E-001    -8.223987E+001   5.074436E-002    -7.205816E+001   
! Port Impedance  5.000000E+001    0.000000E+000    5.000000E+001    0.000000E+000    

3.700000E-001    4.734026E-002    -6.800444E+001   8.160457E-001    -8.498213E+001   8.160457E-001    -8.498213E+001   4.734026E-002    -6.800444E+001   
! Port Impedance  5.000000E+001    0.000000E+000    5.000000E+001    0.000000E+000    

3.800000E-001    4.476564E-002    -6.334767E+001   8.189717E-001    -8.772514E+001   8.189717E-001    -8.772514E+001   4.476564E-002    -6.334767E+001   
! Port Impedance  5.000000E+001    0.000000E+000    5.000000E+001    0.000000E+000    

3.900000E-001    4.303792E-002    -5.829964E+001   8.216936E-001    -9.046811E+001   8.216936E-001    -9.046811E+001   4.303792E-002    -5.829964E+001   
! Port Impedance  5.000000E+001    0.000000E+000    5.000000E+001    0.000000E+000    

4.000000E-001    4.212901E-002    -5.314063E+001   8.242219E-001    -9.321039E+001   8.242219E-001    -9.321039E+001   4.212901E-002    -5.314063E+001   
! Port Impedance  5.000000E+001    0.000000E+000    5.000000E+001    0.000000E+000    

4.100000E-001    4.196269E-002    -4.816426E+001   8.265673E-001    -9.595142E+001   8.265673E-001    -9.595142E+001   4.196269E-002    -4.816426E+001   
! Port Impedance  5.000000E+001    0.000000E+000    5.000000E+001    0.000000E+000    

4.200000E-001    4.242429E-002    -4.361581E+001   8.287402E-001    -9.869072E+001   8.287402E-001    -9.869072E+001   4.242429E-002    -4.361581E+001   
! Port Impedance  5.000000E+001    0.000000E+000    5.000000E+001    0.000000E+000    

4.300000E-001    4.337858E-002    -3.965319E+001   8.307508E-001    -1.014279E+002   8.307508E-001    -1.014279E+002   4.337858E-002    -3.965319E+001   
! Port Impedance  5.000000E+001    0.000000E+000    5.000000E+001    0.000000E+000    

4.400000E-001    4.468827E-002    -3.634222E+001   8.326094E-001    -1.041627E+002   8.326094E-001    -1.041627E+002   4.468827E-002    -3.634222E+001   
! Port Impedance  5.000000E+001    0.000000E+000    5.000000E+001    0.000000E+000    

4.500000E-001    4.622750E-002    -3.367633E+001   8.343255E-001    -1.068947E+002   8.343255E-001    -1.068947E+002   4.622750E-002    -3.367633E+001   
! Port Impedance  5.000000E+001    0.000000E+000    5.000000E+001    0.000000E+000    

4.600000E-001    4.788863E-002    -3.160389E+001   8.359086E-001    -1.096239E+002   8.359086E-001    -1.096239E+002   4.788863E-002    -3.160389E+001   
! Port Impedance  5.000000E+001    0.000000E+000    5.000000E+001    0.000000E+000    

4.700000E-001    4.958380E-002    -3.005162E+001   8.373676E-001    -1.123501E+002   8.373676E-001    -1.123501E+002   4.958380E-002    -3.005162E+001   
! Port Impedance  5.000000E+001    0.000000E+000    5.000000E+001    0.000000E+000    

4.800000E-001    5.124360E-002    -2.894031E+001   8.387110E-001    -1.150732E+002   8.387110E-001    -1.150732E+002   5.124360E-002    -2.894031E+001   
! Port Impedance  5.000000E+001    0.000000E+000    5.000000E+001    0.000000E+000    

4.900000E-001    5.281436E-002    -2.819362E+001   8.399469E-001    -1.177932E+002   8.399469E-001    -1.177932E+002   5.281436E-002    -2.819362E+001   
! Port Impedance  5.000000E+001    0.000000E+000    5.000000E+001    0.000000E+000    

5.000000E-001    5.425539E-002    -2.774200E+001   8.410829E-001    -1.205099E+002   8.410829E-001    -1.205099E+002   5.425539E-002    -2.774200E+001   
! Port Impedance  5.000000E+001    0.000000E+000    5.000000E+001    0.000000E+000    

5.100000E-001    5.553645E-002    -2.752391E+001   8.421260E-001    -1.232236E+002   8.421260E-001    -1.232236E+002   5.553645E-002    -2.752391E+001   
! Port Impedance  5.000000E+001    0.000000E+000    5.000000E+001    0.000000E+000    

5.200000E-001    5.663567E-002    -2.748538E+001   8.430828E-001    -1.259341E+002   8.430828E-001    -1.259341E+002   5.663567E-002    -2.748538E+001   
! Port Impedance  5.000000E+001    0.000000E+000    5.000000E+001    0.000000E+000    

5.300000E-001    5.753801E-002    -2.757910E+001   8.439595E-001    -1.286417E+002   8.439595E-001    -1.286417E+002   5.753801E-002    -2.757910E+001   
! Port Impedance  5.000000E+001    0.000000E+000    5.000000E+001    0.000000E+000    

5.400000E-001    5.823399E-002    -2.776318E+001   8.447615E-001    -1.313463E+002   8.447615E-001    -1.313463E+002   5.823399E-002    -2.776318E+001   
! Port Impedance  5.000000E+001    0.000000E+000    5.000000E+001    0.000000E+000    

5.500000E-001    5.871888E-002    -2.799990E+001   8.454939E-001    -1.340481E+002   8.454939E-001    -1.340481E+002   5.871888E-002    -2.799990E+001   
! Port Impedance  5.000000E+001    0.000000E+000    5.000000E+001    0.000000E+000    

5.600000E-001    5.899212E-002    -2.825460E+001   8.461615E-001    -1.367472E+002   8.461615E-001    -1.367472E+002   5.899212E-002    -2.825460E+001   
! Port Impedance  5.000000E+001    0.000000E+000    5.000000E+001    0.000000E+000    

5.700000E-001    5.905689E-002    -2.849469E+001   8.467682E-001    -1.394437E+002   8.467682E-001    -1.394437E+002   5.905689E-002    -2.849469E+001   
! Port Impedance  5.000000E+001    0.000000E+000    5.000000E+001    0.000000E+000    

5.800000E-001    5.892001E-002    -2.868870E+001   8.473178E-001    -1.421378E+002   8.473178E-001    -1.421378E+002   5.892001E-002    -2.868870E+001   
! Port Impedance  5.000000E+001    0.000000E+000    5.000000E+001    0.000000E+000    

5.900000E-001    5.859187E-002    -2.880554E+001   8.478134E-001    -1.448297E+002   8.478134E-001    -1.448297E+002   5.859187E-002    -2.880554E+001   
! Port Impedance  5.000000E+001    0.000000E+000    5.000000E+001    0.000000E+000    

6.000000E-001    5.808659E-002    -2.881388E+001   8.482579E-001    -1.475193E+002   8.482579E-001    -1.475193E+002   5.808659E-002    -2.881388E+001   
! Port Impedance  5.000000E+001    0.000000E+000    5.000000E+001    0.000000E+000    

6.100000E-001    5.742226E-002    -2.868163E+001   8.486536E-001    -1.502070E+002   8.486536E-001    -1.502070E+002   5.742226E-002    -2.868163E+001   
! Port Impedance  5.000000E+001    0.000000E+000    5.000000E+001    0.000000E+000    

6.200000E-001    5.662137E-002    -2.837568E+001   8.490026E-001    -1.528928E+002   8.490026E-001    -1.528928E+002   5.662137E-002    -2.837568E+001   
! Port Impedance  5.000000E+001    0.000000E+000    5.000000E+001    0.000000E+000    

6.300000E-001    5.571125E-002    -2.786196E+001   8.493064E-001    -1.555769E+002   8.493064E-001    -1.555769E+002   5.571125E-002    -2.786196E+001   
! Port Impedance  5.000000E+001    0.000000E+000    5.000000E+001    0.000000E+000    

6.400000E-001    5.472474E-002    -2.710584E+001   8.495664E-001    -1.582593E+002   8.495664E-001    -1.582593E+002   5.472474E-002    -2.710584E+001   
! Port Impedance  5.000000E+001    0.000000E+000    5.000000E+001    0.000000E+000    

6.500000E-001    5.370070E-002    -2.607330E+001   8.497835E-001    -1.609403E+002   8.497835E-001    -1.609403E+002   5.370070E-002    -2.607330E+001   
! Port Impedance  5.000000E+001    0.000000E+000    5.000000E+001    0.000000E+000    

6.600000E-001    5.268462E-002    -2.473288E+001   8.499585E-001    -1.636199E+002   8.499585E-001    -1.636199E+002   5.268462E-002    -2.473288E+001   
! Port Impedance  5.000000E+001    0.000000E+000    5.000000E+001    0.000000E+000    

6.700000E-001    5.172886E-002    -2.305879E+001   8.500916E-001    -1.662982E+002   8.500916E-001    -1.662982E+002   5.172886E-002    -2.305879E+001   
! Port Impedance  5.000000E+001    0.000000E+000    5.000000E+001    0.000000E+000    

6.800000E-001    5.089245E-002    -2.103522E+001   8.501831E-001    -1.689752E+002   8.501831E-001    -1.689752E+002   5.089245E-002    -2.103522E+001   
! Port Impedance  5.000000E+001    0.000000E+000    5.000000E+001    0.000000E+000    

6.900000E-001    5.024015E-002    -1.866169E+001   8.502330E-001    -1.716512E+002   8.502330E-001    -1.716512E+002   5.024015E-002    -1.866169E+001   
! Port Impedance  5.000000E+001    0.000000E+000    5.000000E+001    0.000000E+000    

7.000000E-001    4.984030E-002    -1.595879E+001   8.502410E-001    -1.743260E+002   8.502410E-001    -1.743260E+002   4.984030E-002    -1.595879E+001   
! Port Impedance  5.000000E+001    0.000000E+000    5.000000E+001    0.000000E+000    

7.100000E-001    4.976153E-002    -1.297266E+001   8.502068E-001    -1.769998E+002   8.502068E-001    -1.769998E+002   4.976153E-002    -1.297266E+001   
! Port Impedance  5.000000E+001    0.000000E+000    5.000000E+001    0.000000E+000    

7.200000E-001    5.006823E-002    -9.776494E+000   8.501299E-001    -1.796726E+002   8.501299E-001    -1.796726E+002   5.006823E-002    -9.776494E+000   
! Port Impedance  5.000000E+001    0.000000E+000    5.000000E+001    0.000000E+000    

7.300000E-001    5.081548E-002    -6.467067E+000   8.500096E-001    1.776556E+002    8.500096E-001    1.776556E+002    5.081548E-002    -6.467067E+000   
! Port Impedance  5.000000E+001    0.000000E+000    5.000000E+001    0.000000E+000    

7.400000E-001    5.204442E-002    -3.155846E+000   8.498453E-001    1.749848E+002    8.498453E-001    1.749848E+002    5.204442E-002    -3.155846E+000   
! Port Impedance  5.000000E+001    0.000000E+000    5.000000E+001    0.000000E+000    

7.500000E-001    5.377922E-002    4.374803E-002    8.496363E-001    1.723151E+002    8.496363E-001    1.723151E+002    5.377922E-002    4.374803E-002    
! Port Impedance  5.000000E+001    0.000000E+000    5.000000E+001    0.000000E+000    

7.600000E-001    5.602625E-002    3.029574E+000    8.493819E-001    1.696465E+002    8.493819E-001    1.696465E+002    5.602625E-002    3.029574E+000    
! Port Impedance  5.000000E+001    0.000000E+000    5.000000E+001    0.000000E+000    

7.700000E-001    5.877568E-002    5.720913E+000    8.490814E-001    1.669790E+002    8.490814E-001    1.669790E+002    5.877568E-002    5.720913E+000    
! Port Impedance  5.000000E+001    0.000000E+000    5.000000E+001    0.000000E+000    

7.800000E-001    6.200474E-002    8.063363E+000    8.487341E-001    1.643127E+002    8.487341E-001    1.643127E+002    6.200474E-002    8.063363E+000    
! Port Impedance  5.000000E+001    0.000000E+000    5.000000E+001    0.000000E+000    

7.900000E-001    6.568163E-002    1.002851E+001    8.483394E-001    1.616477E+002    8.483394E-001    1.616477E+002    6.568163E-002    1.002851E+001    
! Port Impedance  5.000000E+001    0.000000E+000    5.000000E+001    0.000000E+000    

8.000000E-001    6.976931E-002    1.160996E+001    8.478970E-001    1.589842E+002    8.478970E-001    1.589842E+002    6.976931E-002    1.160996E+001    
! Port Impedance  5.000000E+001    0.000000E+000    5.000000E+001    0.000000E+000    

8.100000E-001    7.422859E-002    1.281773E+001    8.474063E-001    1.563221E+002    8.474063E-001    1.563221E+002    7.422859E-002    1.281773E+001    
! Port Impedance  5.000000E+001    0.000000E+000    5.000000E+001    0.000000E+000    

8.200000E-001    7.902026E-002    1.367264E+001    8.468672E-001    1.536617E+002    8.468672E-001    1.536617E+002    7.902026E-002    1.367264E+001    
! Port Impedance  5.000000E+001    0.000000E+000    5.000000E+001    0.000000E+000    

