! Touchstone file from project 
# GHZ S MA R 50.000000
! Modal data exported
1.000000E-002    3.639405E-003    7.930664E+001    9.977013E-001    -1.309310E+000   9.977013E-001    -1.309310E+000   3.641379E-003    7.874651E+001    
! Port Impedance  5.000000E+001    0.000000E+000    5.000000E+001    0.000000E+000    

2.000000E-002    7.243293E-003    8.316482E+001    9.972193E-001    -2.617176E+000   9.972193E-001    -2.617176E+000   7.245947E-003    8.204220E+001    
! Port Impedance  5.000000E+001    0.000000E+000    5.000000E+001    0.000000E+000    

3.000000E-002    1.085318E-002    8.322068E+001    9.965995E-001    -3.925319E+000   9.965995E-001    -3.925319E+000   1.085724E-002    8.153744E+001    
! Port Impedance  5.000000E+001    0.000000E+000    5.000000E+001    0.000000E+000    

4.000000E-002    1.445588E-002    8.264048E+001    9.959100E-001    -5.233395E+000   9.959100E-001    -5.233395E+000   1.446188E-002    8.039701E+001    
! Port Impedance  5.000000E+001    0.000000E+000    5.000000E+001    0.000000E+000    

5.000000E-002    1.804982E-002    8.186412E+001    9.951961E-001    -6.541335E+000   9.951961E-001    -6.541335E+000   1.805819E-002    7.906088E+001    
! Port Impedance  5.000000E+001    0.000000E+000    5.000000E+001    0.000000E+000    

6.000000E-002    2.163436E-002    8.101060E+001    9.944850E-001    -7.849108E+000   9.944850E-001    -7.849108E+000   2.164547E-002    7.764819E+001    
! Port Impedance  5.000000E+001    0.000000E+000    5.000000E+001    0.000000E+000    

7.000000E-002    2.520901E-002    8.012052E+001    9.937896E-001    -9.156691E+000   9.937896E-001    -9.156691E+000   2.522318E-002    7.619964E+001    
! Port Impedance  5.000000E+001    0.000000E+000    5.000000E+001    0.000000E+000    

8.000000E-002    2.877324E-002    7.920931E+001    9.931133E-001    -1.046406E+001   9.931133E-001    -1.046406E+001   2.879070E-002    7.473080E+001    
! Port Impedance  5.000000E+001    0.000000E+000    5.000000E+001    0.000000E+000    

9.000000E-002    3.232637E-002    7.828347E+001    9.924546E-001    -1.177121E+001   9.924546E-001    -1.177121E+001   3.234737E-002    7.324826E+001    
! Port Impedance  5.000000E+001    0.000000E+000    5.000000E+001    0.000000E+000    

1.000000E-001    3.586764E-002    7.734613E+001    9.918100E-001    -1.307810E+001   9.918100E-001    -1.307810E+001   3.589239E-002    7.175528E+001    
! Port Impedance  5.000000E+001    0.000000E+000    5.000000E+001    0.000000E+000    

1.100000E-001    3.939621E-002    7.639914E+001    9.911755E-001    -1.438473E+001   9.911755E-001    -1.438473E+001   3.942492E-002    7.025382E+001    
! Port Impedance  5.000000E+001    0.000000E+000    5.000000E+001    0.000000E+000    

1.200000E-001    4.291121E-002    7.544382E+001    9.905475E-001    -1.569107E+001   9.905475E-001    -1.569107E+001   4.294409E-002    6.874529E+001    
! Port Impedance  5.000000E+001    0.000000E+000    5.000000E+001    0.000000E+000    

1.300000E-001    4.641172E-002    7.448120E+001    9.899228E-001    -1.699709E+001   9.899228E-001    -1.699709E+001   4.644898E-002    6.723086E+001    
! Port Impedance  5.000000E+001    0.000000E+000    5.000000E+001    0.000000E+000    

1.400000E-001    4.989681E-002    7.351219E+001    9.892991E-001    -1.830278E+001   9.892991E-001    -1.830278E+001   4.993866E-002    6.571153E+001    
! Port Impedance  5.000000E+001    0.000000E+000    5.000000E+001    0.000000E+000    

1.500000E-001    5.336555E-002    7.253756E+001    9.886743E-001    -1.960811E+001   9.886743E-001    -1.960811E+001   5.341221E-002    6.418819E+001    
! Port Impedance  5.000000E+001    0.000000E+000    5.000000E+001    0.000000E+000    

1.600000E-001    5.681701E-002    7.155797E+001    9.880472E-001    -2.091307E+001   9.880472E-001    -2.091307E+001   5.686869E-002    6.266160E+001    
! Port Impedance  5.000000E+001    0.000000E+000    5.000000E+001    0.000000E+000    

1.700000E-001    6.025025E-002    7.057400E+001    9.874166E-001    -2.221764E+001   9.874166E-001    -2.221764E+001   6.030717E-002    6.113247E+001    
! Port Impedance  5.000000E+001    0.000000E+000    5.000000E+001    0.000000E+000    

1.800000E-001    6.366435E-002    6.958614E+001    9.867818E-001    -2.352179E+001   9.867818E-001    -2.352179E+001   6.372673E-002    5.960139E+001    
! Port Impedance  5.000000E+001    0.000000E+000    5.000000E+001    0.000000E+000    

1.900000E-001    6.705839E-002    6.859480E+001    9.861423E-001    -2.482550E+001   9.861423E-001    -2.482550E+001   6.712644E-002    5.806888E+001    
! Port Impedance  5.000000E+001    0.000000E+000    5.000000E+001    0.000000E+000    

2.000000E-001    7.043143E-002    6.760035E+001    9.854979E-001    -2.612876E+001   9.854979E-001    -2.612876E+001   7.050538E-002    5.653542E+001    
! Port Impedance  5.000000E+001    0.000000E+000    5.000000E+001    0.000000E+000    

2.100000E-001    7.378257E-002    6.660308E+001    9.848483E-001    -2.743155E+001   9.848483E-001    -2.743155E+001   7.386264E-002    5.500140E+001    
! Port Impedance  5.000000E+001    0.000000E+000    5.000000E+001    0.000000E+000    

2.200000E-001    7.711090E-002    6.560324E+001    9.841935E-001    -2.873384E+001   9.841935E-001    -2.873384E+001   7.719731E-002    5.346719E+001    
! Port Impedance  5.000000E+001    0.000000E+000    5.000000E+001    0.000000E+000    

2.300000E-001    8.041549E-002    6.460105E+001    9.835335E-001    -3.003563E+001   9.835335E-001    -3.003563E+001   8.050848E-002    5.193311E+001    
! Port Impedance  5.000000E+001    0.000000E+000    5.000000E+001    0.000000E+000    

2.400000E-001    8.369545E-002    6.359668E+001    9.828683E-001    -3.133688E+001   9.828683E-001    -3.133688E+001   8.379523E-002    5.039943E+001    
! Port Impedance  5.000000E+001    0.000000E+000    5.000000E+001    0.000000E+000    

2.500000E-001    8.694988E-002    6.259027E+001    9.821981E-001    -3.263759E+001   9.821981E-001    -3.263759E+001   8.705668E-002    4.886642E+001    
! Port Impedance  5.000000E+001    0.000000E+000    5.000000E+001    0.000000E+000    

2.600000E-001    9.017787E-002    6.158195E+001    9.815231E-001    -3.393774E+001   9.815231E-001    -3.393774E+001   9.029191E-002    4.733429E+001    
! Port Impedance  5.000000E+001    0.000000E+000    5.000000E+001    0.000000E+000    

2.700000E-001    9.337852E-002    6.057182E+001    9.808433E-001    -3.523731E+001   9.808433E-001    -3.523731E+001   9.350003E-002    4.580325E+001    
! Port Impedance  5.000000E+001    0.000000E+000    5.000000E+001    0.000000E+000    

2.800000E-001    9.655093E-002    5.955996E+001    9.801590E-001    -3.653629E+001   9.801590E-001    -3.653629E+001   9.668015E-002    4.427349E+001    
! Port Impedance  5.000000E+001    0.000000E+000    5.000000E+001    0.000000E+000    

2.900000E-001    9.969422E-002    5.854644E+001    9.794705E-001    -3.783466E+001   9.794705E-001    -3.783466E+001   9.983137E-002    4.274517E+001    
! Port Impedance  5.000000E+001    0.000000E+000    5.000000E+001    0.000000E+000    

3.000000E-001    1.028075E-001    5.753130E+001    9.787780E-001    -3.913241E+001   9.787780E-001    -3.913241E+001   1.029528E-001    4.121846E+001    
! Port Impedance  5.000000E+001    0.000000E+000    5.000000E+001    0.000000E+000    

3.100000E-001    1.058898E-001    5.651461E+001    9.780817E-001    -4.042952E+001   9.780817E-001    -4.042952E+001   1.060436E-001    3.969349E+001    
! Port Impedance  5.000000E+001    0.000000E+000    5.000000E+001    0.000000E+000    

3.200000E-001    1.089404E-001    5.549639E+001    9.773820E-001    -4.172599E+001   9.773820E-001    -4.172599E+001   1.091028E-001    3.817040E+001    
! Port Impedance  5.000000E+001    0.000000E+000    5.000000E+001    0.000000E+000    

3.300000E-001    1.119583E-001    5.447666E+001    9.766790E-001    -4.302179E+001   9.766790E-001    -4.302179E+001   1.121295E-001    3.664933E+001    
! Port Impedance  5.000000E+001    0.000000E+000    5.000000E+001    0.000000E+000    

3.400000E-001    1.149426E-001    5.345544E+001    9.759732E-001    -4.431692E+001   9.759732E-001    -4.431692E+001   1.151230E-001    3.513037E+001    
! Port Impedance  5.000000E+001    0.000000E+000    5.000000E+001    0.000000E+000    

3.500000E-001    1.178925E-001    5.243276E+001    9.752649E-001    -4.561137E+001   9.752649E-001    -4.561137E+001   1.180822E-001    3.361366E+001    
! Port Impedance  5.000000E+001    0.000000E+000    5.000000E+001    0.000000E+000    

3.600000E-001    1.208071E-001    5.140861E+001    9.745542E-001    -4.690512E+001   9.745542E-001    -4.690512E+001   1.210064E-001    3.209928E+001    
! Port Impedance  5.000000E+001    0.000000E+000    5.000000E+001    0.000000E+000    

3.700000E-001    1.236855E-001    5.038300E+001    9.738417E-001    -4.819817E+001   9.738417E-001    -4.819817E+001   1.238947E-001    3.058734E+001    
! Port Impedance  5.000000E+001    0.000000E+000    5.000000E+001    0.000000E+000    

3.800000E-001    1.265268E-001    4.935593E+001    9.731276E-001    -4.949051E+001   9.731276E-001    -4.949051E+001   1.267461E-001    2.907794E+001    
! Port Impedance  5.000000E+001    0.000000E+000    5.000000E+001    0.000000E+000    

3.900000E-001    1.293303E-001    4.832739E+001    9.724123E-001    -5.078212E+001   9.724123E-001    -5.078212E+001   1.295600E-001    2.757117E+001    
! Port Impedance  5.000000E+001    0.000000E+000    5.000000E+001    0.000000E+000    

4.000000E-001    1.320950E-001    4.729738E+001    9.716961E-001    -5.207301E+001   9.716961E-001    -5.207301E+001   1.323353E-001    2.606711E+001    
! Port Impedance  5.000000E+001    0.000000E+000    5.000000E+001    0.000000E+000    

4.100000E-001    1.348200E-001    4.626589E+001    9.709794E-001    -5.336316E+001   9.709794E-001    -5.336316E+001   1.350712E-001    2.456584E+001    
! Port Impedance  5.000000E+001    0.000000E+000    5.000000E+001    0.000000E+000    

4.200000E-001    1.375046E-001    4.523289E+001    9.702626E-001    -5.465257E+001   9.702626E-001    -5.465257E+001   1.377670E-001    2.306745E+001    
! Port Impedance  5.000000E+001    0.000000E+000    5.000000E+001    0.000000E+000    

4.300000E-001    1.401479E-001    4.419839E+001    9.695460E-001    -5.594123E+001   9.695460E-001    -5.594123E+001   1.404217E-001    2.157202E+001    
! Port Impedance  5.000000E+001    0.000000E+000    5.000000E+001    0.000000E+000    

4.400000E-001    1.427490E-001    4.316235E+001    9.688301E-001    -5.722914E+001   9.688301E-001    -5.722914E+001   1.430346E-001    2.007961E+001    
! Port Impedance  5.000000E+001    0.000000E+000    5.000000E+001    0.000000E+000    

4.500000E-001    1.453071E-001    4.212476E+001    9.681152E-001    -5.851630E+001   9.681152E-001    -5.851630E+001   1.456048E-001    1.859030E+001    
! Port Impedance  5.000000E+001    0.000000E+000    5.000000E+001    0.000000E+000    

4.600000E-001    1.478214E-001    4.108560E+001    9.674018E-001    -5.980271E+001   9.674018E-001    -5.980271E+001   1.481314E-001    1.710417E+001    
! Port Impedance  5.000000E+001    0.000000E+000    5.000000E+001    0.000000E+000    

4.700000E-001    1.502910E-001    4.004484E+001    9.666902E-001    -6.108835E+001   9.666902E-001    -6.108835E+001   1.506137E-001    1.562126E+001    
! Port Impedance  5.000000E+001    0.000000E+000    5.000000E+001    0.000000E+000    

4.800000E-001    1.527152E-001    3.900246E+001    9.659808E-001    -6.237324E+001   9.659808E-001    -6.237324E+001   1.530508E-001    1.414167E+001    
! Port Impedance  5.000000E+001    0.000000E+000    5.000000E+001    0.000000E+000    

4.900000E-001    1.550931E-001    3.795843E+001    9.652741E-001    -6.365737E+001   9.652741E-001    -6.365737E+001   1.554420E-001    1.266543E+001    
! Port Impedance  5.000000E+001    0.000000E+000    5.000000E+001    0.000000E+000    

5.000000E-001    1.574240E-001    3.691273E+001    9.645704E-001    -6.494075E+001   9.645704E-001    -6.494075E+001   1.577865E-001    1.119263E+001    
! Port Impedance  5.000000E+001    0.000000E+000    5.000000E+001    0.000000E+000    

5.100000E-001    1.597069E-001    3.586531E+001    9.638702E-001    -6.622336E+001   9.638702E-001    -6.622336E+001   1.600833E-001    9.723313E+000    
! Port Impedance  5.000000E+001    0.000000E+000    5.000000E+001    0.000000E+000    

5.200000E-001    1.619412E-001    3.481616E+001    9.631739E-001    -6.750523E+001   9.631739E-001    -6.750523E+001   1.623319E-001    8.257544E+000    
! Port Impedance  5.000000E+001    0.000000E+000    5.000000E+001    0.000000E+000    

5.300000E-001    1.641260E-001    3.376523E+001    9.624819E-001    -6.878635E+001   9.624819E-001    -6.878635E+001   1.645313E-001    6.795380E+000    
! Port Impedance  5.000000E+001    0.000000E+000    5.000000E+001    0.000000E+000    

5.400000E-001    1.662606E-001    3.271250E+001    9.617946E-001    -7.006672E+001   9.617946E-001    -7.006672E+001   1.666809E-001    5.336877E+000    
! Port Impedance  5.000000E+001    0.000000E+000    5.000000E+001    0.000000E+000    

5.500000E-001    1.683442E-001    3.165792E+001    9.611124E-001    -7.134635E+001   9.611124E-001    -7.134635E+001   1.687798E-001    3.882091E+000    
! Port Impedance  5.000000E+001    0.000000E+000    5.000000E+001    0.000000E+000    

5.600000E-001    1.703760E-001    3.060146E+001    9.604358E-001    -7.262526E+001   9.604358E-001    -7.262526E+001   1.708274E-001    2.431074E+000    
! Port Impedance  5.000000E+001    0.000000E+000    5.000000E+001    0.000000E+000    

5.700000E-001    1.723552E-001    2.954309E+001    9.597651E-001    -7.390344E+001   9.597651E-001    -7.390344E+001   1.728227E-001    9.838804E-001    
! Port Impedance  5.000000E+001    0.000000E+000    5.000000E+001    0.000000E+000    

5.800000E-001    1.742812E-001    2.848275E+001    9.591008E-001    -7.518090E+001   9.591008E-001    -7.518090E+001   1.747652E-001    -4.594377E-001   
! Port Impedance  5.000000E+001    0.000000E+000    5.000000E+001    0.000000E+000    

5.900000E-001    1.761532E-001    2.742042E+001    9.584432E-001    -7.645766E+001   9.584432E-001    -7.645766E+001   1.766541E-001    -1.898829E+000   
! Port Impedance  5.000000E+001    0.000000E+000    5.000000E+001    0.000000E+000    

6.000000E-001    1.779703E-001    2.635604E+001    9.577928E-001    -7.773373E+001   9.577928E-001    -7.773373E+001   1.784887E-001    -3.334243E+000   
! Port Impedance  5.000000E+001    0.000000E+000    5.000000E+001    0.000000E+000    

6.100000E-001    1.797320E-001    2.528957E+001    9.571500E-001    -7.900911E+001   9.571500E-001    -7.900911E+001   1.802682E-001    -4.765629E+000   
! Port Impedance  5.000000E+001    0.000000E+000    5.000000E+001    0.000000E+000    

6.200000E-001    1.814375E-001    2.422096E+001    9.565151E-001    -8.028382E+001   9.565151E-001    -8.028382E+001   1.819919E-001    -6.192938E+000   
! Port Impedance  5.000000E+001    0.000000E+000    5.000000E+001    0.000000E+000    

6.300000E-001    1.830861E-001    2.315018E+001    9.558886E-001    -8.155787E+001   9.558886E-001    -8.155787E+001   1.836592E-001    -7.616119E+000   
! Port Impedance  5.000000E+001    0.000000E+000    5.000000E+001    0.000000E+000    

6.400000E-001    1.846770E-001    2.207716E+001    9.552709E-001    -8.283128E+001   9.552709E-001    -8.283128E+001   1.852693E-001    -9.035124E+000   
! Port Impedance  5.000000E+001    0.000000E+000    5.000000E+001    0.000000E+000    

6.500000E-001    1.862096E-001    2.100186E+001    9.546622E-001    -8.410406E+001   9.546622E-001    -8.410406E+001   1.868217E-001    -1.044990E+001   
! Port Impedance  5.000000E+001    0.000000E+000    5.000000E+001    0.000000E+000    

6.600000E-001    1.876832E-001    1.992422E+001    9.540630E-001    -8.537622E+001   9.540630E-001    -8.537622E+001   1.883155E-001    -1.186041E+001   
! Port Impedance  5.000000E+001    0.000000E+000    5.000000E+001    0.000000E+000    

6.700000E-001    1.890972E-001    1.884420E+001    9.534737E-001    -8.664780E+001   9.534737E-001    -8.664780E+001   1.897502E-001    -1.326659E+001   
! Port Impedance  5.000000E+001    0.000000E+000    5.000000E+001    0.000000E+000    

6.800000E-001    1.904508E-001    1.776173E+001    9.528946E-001    -8.791879E+001   9.528946E-001    -8.791879E+001   1.911251E-001    -1.466839E+001   
! Port Impedance  5.000000E+001    0.000000E+000    5.000000E+001    0.000000E+000    

6.900000E-001    1.917434E-001    1.667676E+001    9.523260E-001    -8.918923E+001   9.523260E-001    -8.918923E+001   1.924396E-001    -1.606577E+001   
! Port Impedance  5.000000E+001    0.000000E+000    5.000000E+001    0.000000E+000    

7.000000E-001    1.929743E-001    1.558923E+001    9.517684E-001    -9.045913E+001   9.517684E-001    -9.045913E+001   1.936930E-001    -1.745868E+001   
! Port Impedance  5.000000E+001    0.000000E+000    5.000000E+001    0.000000E+000    

7.100000E-001    1.941430E-001    1.449907E+001    9.512219E-001    -9.172851E+001   9.512219E-001    -9.172851E+001   1.948847E-001    -1.884706E+001   
! Port Impedance  5.000000E+001    0.000000E+000    5.000000E+001    0.000000E+000    

7.200000E-001    1.952487E-001    1.340623E+001    9.506870E-001    -9.299740E+001   9.506870E-001    -9.299740E+001   1.960142E-001    -2.023086E+001   
! Port Impedance  5.000000E+001    0.000000E+000    5.000000E+001    0.000000E+000    

7.300000E-001    1.962910E-001    1.231063E+001    9.501638E-001    -9.426581E+001   9.501638E-001    -9.426581E+001   1.970807E-001    -2.161002E+001   
! Port Impedance  5.000000E+001    0.000000E+000    5.000000E+001    0.000000E+000    

7.400000E-001    1.972690E-001    1.121222E+001    9.496529E-001    -9.553377E+001   9.496529E-001    -9.553377E+001   1.980838E-001    -2.298450E+001   
! Port Impedance  5.000000E+001    0.000000E+000    5.000000E+001    0.000000E+000    

7.500000E-001    1.981824E-001    1.011091E+001    9.491543E-001    -9.680131E+001   9.491543E-001    -9.680131E+001   1.990229E-001    -2.435423E+001   
! Port Impedance  5.000000E+001    0.000000E+000    5.000000E+001    0.000000E+000    

7.600000E-001    1.990304E-001    9.006646E+000    9.486685E-001    -9.806845E+001   9.486685E-001    -9.806845E+001   1.998974E-001    -2.571916E+001   
! Port Impedance  5.000000E+001    0.000000E+000    5.000000E+001    0.000000E+000    

7.700000E-001    1.998126E-001    7.899344E+000    9.481955E-001    -9.933521E+001   9.481955E-001    -9.933521E+001   2.007067E-001    -2.707923E+001   
! Port Impedance  5.000000E+001    0.000000E+000    5.000000E+001    0.000000E+000    

7.800000E-001    2.005282E-001    6.788930E+000    9.477358E-001    -1.006016E+002   9.477358E-001    -1.006016E+002   2.014504E-001    -2.843437E+001   
! Port Impedance  5.000000E+001    0.000000E+000    5.000000E+001    0.000000E+000    

7.900000E-001    2.011769E-001    5.675323E+000    9.472895E-001    -1.018677E+002   9.472895E-001    -1.018677E+002   2.021279E-001    -2.978452E+001   
! Port Impedance  5.000000E+001    0.000000E+000    5.000000E+001    0.000000E+000    

8.000000E-001    2.017580E-001    4.558441E+000    9.468568E-001    -1.031335E+002   9.468568E-001    -1.031335E+002   2.027387E-001    -3.112961E+001   
! Port Impedance  5.000000E+001    0.000000E+000    5.000000E+001    0.000000E+000    

8.100000E-001    2.022710E-001    3.438200E+000    9.464379E-001    -1.043991E+002   9.464379E-001    -1.043991E+002   2.032822E-001    -3.246958E+001   
! Port Impedance  5.000000E+001    0.000000E+000    5.000000E+001    0.000000E+000    

8.200000E-001    2.027155E-001    2.314512E+000    9.460331E-001    -1.056644E+002   9.460331E-001    -1.056644E+002   2.037581E-001    -3.380434E+001   
! Port Impedance  5.000000E+001    0.000000E+000    5.000000E+001    0.000000E+000    

