! Touchstone file from project 
# GHZ S MA R 50.000000
! Modal data exported
1.000000E-002    7.262855E-003    7.772006E+001    9.953956E-001    -2.618343E+000   9.953956E-001    -2.618343E+000   7.262855E-003    7.772006E+001    
! Port Impedance  5.000000E+001    0.000000E+000    5.000000E+001    0.000000E+000    

2.000000E-002    1.443935E-002    7.999284E+001    9.943956E-001    -5.233642E+000   9.943956E-001    -5.233642E+000   1.443935E-002    7.999284E+001    
! Port Impedance  5.000000E+001    0.000000E+000    5.000000E+001    0.000000E+000    

3.000000E-002    2.160419E-002    7.846579E+001    9.930969E-001    -7.849056E+000   9.930969E-001    -7.849056E+000   2.160419E-002    7.846579E+001    
! Port Impedance  5.000000E+001    0.000000E+000    5.000000E+001    0.000000E+000    

4.000000E-002    2.872280E-002    7.630501E+001    9.916363E-001    -1.046375E+001   9.916363E-001    -1.046375E+001   2.872280E-002    7.630501E+001    
! Port Impedance  5.000000E+001    0.000000E+000    5.000000E+001    0.000000E+000    

5.000000E-002    3.578510E-002    7.395058E+001    9.901056E-001    -1.307744E+001   9.901056E-001    -1.307744E+001   3.578510E-002    7.395058E+001    
! Port Impedance  5.000000E+001    0.000000E+000    5.000000E+001    0.000000E+000    

6.000000E-002    4.278358E-002    7.152161E+001    9.885603E-001    -1.568994E+001   9.885603E-001    -1.568994E+001   4.278358E-002    7.152161E+001    
! Port Impedance  5.000000E+001    0.000000E+000    5.000000E+001    0.000000E+000    

7.000000E-002    4.971117E-002    6.905876E+001    9.870274E-001    -1.830108E+001   9.870274E-001    -1.830108E+001   4.971117E-002    6.905876E+001    
! Port Impedance  5.000000E+001    0.000000E+000    5.000000E+001    0.000000E+000    

8.000000E-002    5.656065E-002    6.657757E+001    9.855152E-001    -2.091070E+001   9.855152E-001    -2.091070E+001   5.656065E-002    6.657757E+001    
! Port Impedance  5.000000E+001    0.000000E+000    5.000000E+001    0.000000E+000    

9.000000E-002    6.332451E-002    6.408465E+001    9.840225E-001    -2.351863E+001   9.840225E-001    -2.351863E+001   6.332451E-002    6.408465E+001    
! Port Impedance  5.000000E+001    0.000000E+000    5.000000E+001    0.000000E+000    

1.000000E-001    6.999502E-002    6.158329E+001    9.825441E-001    -2.612474E+001   9.825441E-001    -2.612474E+001   6.999502E-002    6.158329E+001    
! Port Impedance  5.000000E+001    0.000000E+000    5.000000E+001    0.000000E+000    

1.100000E-001    7.656436E-002    5.907550E+001    9.810743E-001    -2.872887E+001   9.810743E-001    -2.872887E+001   7.656436E-002    5.907550E+001    
! Port Impedance  5.000000E+001    0.000000E+000    5.000000E+001    0.000000E+000    

1.200000E-001    8.302469E-002    5.656276E+001    9.796080E-001    -3.133088E+001   9.796080E-001    -3.133088E+001   8.302469E-002    5.656276E+001    
! Port Impedance  5.000000E+001    0.000000E+000    5.000000E+001    0.000000E+000    

1.300000E-001    8.936828E-002    5.404628E+001    9.781413E-001    -3.393066E+001   9.781413E-001    -3.393066E+001   8.936828E-002    5.404628E+001    
! Port Impedance  5.000000E+001    0.000000E+000    5.000000E+001    0.000000E+000    

1.400000E-001    9.558752E-002    5.152713E+001    9.766719E-001    -3.652808E+001   9.766719E-001    -3.652808E+001   9.558752E-002    5.152713E+001    
! Port Impedance  5.000000E+001    0.000000E+000    5.000000E+001    0.000000E+000    

1.500000E-001    1.016750E-001    4.900623E+001    9.751986E-001    -3.912303E+001   9.751986E-001    -3.912303E+001   1.016750E-001    4.900623E+001    
! Port Impedance  5.000000E+001    0.000000E+000    5.000000E+001    0.000000E+000    

1.600000E-001    1.076236E-001    4.648440E+001    9.737212E-001    -4.171542E+001   9.737212E-001    -4.171542E+001   1.076236E-001    4.648440E+001    
! Port Impedance  5.000000E+001    0.000000E+000    5.000000E+001    0.000000E+000    

1.700000E-001    1.134262E-001    4.396235E+001    9.722405E-001    -4.430517E+001   9.722405E-001    -4.430517E+001   1.134262E-001    4.396235E+001    
! Port Impedance  5.000000E+001    0.000000E+000    5.000000E+001    0.000000E+000    

1.800000E-001    1.190762E-001    4.144071E+001    9.707577E-001    -4.689222E+001   9.707577E-001    -4.689222E+001   1.190762E-001    4.144071E+001    
! Port Impedance  5.000000E+001    0.000000E+000    5.000000E+001    0.000000E+000    

1.900000E-001    1.245670E-001    3.891999E+001    9.692747E-001    -4.947649E+001   9.692747E-001    -4.947649E+001   1.245670E-001    3.891999E+001    
! Port Impedance  5.000000E+001    0.000000E+000    5.000000E+001    0.000000E+000    

2.000000E-001    1.298925E-001    3.640068E+001    9.677937E-001    -5.205796E+001   9.677937E-001    -5.205796E+001   1.298925E-001    3.640068E+001    
! Port Impedance  5.000000E+001    0.000000E+000    5.000000E+001    0.000000E+000    

2.100000E-001    1.350465E-001    3.388314E+001    9.663172E-001    -5.463659E+001   9.663172E-001    -5.463659E+001   1.350465E-001    3.388314E+001    
! Port Impedance  5.000000E+001    0.000000E+000    5.000000E+001    0.000000E+000    

2.200000E-001    1.400233E-001    3.136772E+001    9.648479E-001    -5.721237E+001   9.648479E-001    -5.721237E+001   1.400233E-001    3.136772E+001    
! Port Impedance  5.000000E+001    0.000000E+000    5.000000E+001    0.000000E+000    

2.300000E-001    1.448175E-001    2.885470E+001    9.633885E-001    -5.978530E+001   9.633885E-001    -5.978530E+001   1.448175E-001    2.885470E+001    
! Port Impedance  5.000000E+001    0.000000E+000    5.000000E+001    0.000000E+000    

2.400000E-001    1.494236E-001    2.634431E+001    9.619419E-001    -6.235540E+001   9.619419E-001    -6.235540E+001   1.494236E-001    2.634431E+001    
! Port Impedance  5.000000E+001    0.000000E+000    5.000000E+001    0.000000E+000    

2.500000E-001    1.538366E-001    2.383675E+001    9.605110E-001    -6.492267E+001   9.605110E-001    -6.492267E+001   1.538366E-001    2.383675E+001    
! Port Impedance  5.000000E+001    0.000000E+000    5.000000E+001    0.000000E+000    

2.600000E-001    1.580517E-001    2.133217E+001    9.590988E-001    -6.748718E+001   9.590988E-001    -6.748718E+001   1.580517E-001    2.133217E+001    
! Port Impedance  5.000000E+001    0.000000E+000    5.000000E+001    0.000000E+000    

2.700000E-001    1.620642E-001    1.883071E+001    9.577081E-001    -7.004896E+001   9.577081E-001    -7.004896E+001   1.620642E-001    1.883071E+001    
! Port Impedance  5.000000E+001    0.000000E+000    5.000000E+001    0.000000E+000    

2.800000E-001    1.658696E-001    1.633246E+001    9.563417E-001    -7.260809E+001   9.563417E-001    -7.260809E+001   1.658696E-001    1.633246E+001    
! Port Impedance  5.000000E+001    0.000000E+000    5.000000E+001    0.000000E+000    

2.900000E-001    1.694639E-001    1.383751E+001    9.550024E-001    -7.516465E+001   9.550024E-001    -7.516465E+001   1.694639E-001    1.383751E+001    
! Port Impedance  5.000000E+001    0.000000E+000    5.000000E+001    0.000000E+000    

3.000000E-001    1.728428E-001    1.134592E+001    9.536929E-001    -7.771872E+001   9.536929E-001    -7.771872E+001   1.728428E-001    1.134592E+001    
! Port Impedance  5.000000E+001    0.000000E+000    5.000000E+001    0.000000E+000    

3.100000E-001    1.760027E-001    8.857719E+000    9.524157E-001    -8.027041E+001   9.524157E-001    -8.027041E+001   1.760027E-001    8.857719E+000    
! Port Impedance  5.000000E+001    0.000000E+000    5.000000E+001    0.000000E+000    

3.200000E-001    1.789399E-001    6.372941E+000    9.511733E-001    -8.281984E+001   9.511733E-001    -8.281984E+001   1.789399E-001    6.372941E+000    
! Port Impedance  5.000000E+001    0.000000E+000    5.000000E+001    0.000000E+000    

3.300000E-001    1.816509E-001    3.891598E+000    9.499679E-001    -8.536713E+001   9.499679E-001    -8.536713E+001   1.816509E-001    3.891598E+000    
! Port Impedance  5.000000E+001    0.000000E+000    5.000000E+001    0.000000E+000    

3.400000E-001    1.841325E-001    1.413691E+000    9.488019E-001    -8.791241E+001   9.488019E-001    -8.791241E+001   1.841325E-001    1.413691E+000    
! Port Impedance  5.000000E+001    0.000000E+000    5.000000E+001    0.000000E+000    

3.500000E-001    1.863816E-001    -1.060787E+000   9.476772E-001    -9.045584E+001   9.476772E-001    -9.045584E+001   1.863816E-001    -1.060787E+000   
! Port Impedance  5.000000E+001    0.000000E+000    5.000000E+001    0.000000E+000    

3.600000E-001    1.883952E-001    -3.531848E+000   9.465957E-001    -9.299757E+001   9.465957E-001    -9.299757E+001   1.883952E-001    -3.531848E+000   
! Port Impedance  5.000000E+001    0.000000E+000    5.000000E+001    0.000000E+000    

3.700000E-001    1.901707E-001    -5.999511E+000   9.455591E-001    -9.553777E+001   9.455591E-001    -9.553777E+001   1.901707E-001    -5.999511E+000   
! Port Impedance  5.000000E+001    0.000000E+000    5.000000E+001    0.000000E+000    

3.800000E-001    1.917054E-001    -8.463794E+000   9.445689E-001    -9.807661E+001   9.445689E-001    -9.807661E+001   1.917054E-001    -8.463794E+000   
! Port Impedance  5.000000E+001    0.000000E+000    5.000000E+001    0.000000E+000    

3.900000E-001    1.929969E-001    -1.092472E+001   9.436265E-001    -1.006143E+002   9.436265E-001    -1.006143E+002   1.929969E-001    -1.092472E+001   
! Port Impedance  5.000000E+001    0.000000E+000    5.000000E+001    0.000000E+000    

4.000000E-001    1.940430E-001    -1.338230E+001   9.427331E-001    -1.031510E+002   9.427331E-001    -1.031510E+002   1.940430E-001    -1.338230E+001   
! Port Impedance  5.000000E+001    0.000000E+000    5.000000E+001    0.000000E+000    

4.100000E-001    1.948415E-001    -1.583656E+001   9.418895E-001    -1.056868E+002   9.418895E-001    -1.056868E+002   1.948415E-001    -1.583656E+001   
! Port Impedance  5.000000E+001    0.000000E+000    5.000000E+001    0.000000E+000    

4.200000E-001    1.953905E-001    -1.828750E+001   9.410966E-001    -1.082221E+002   9.410966E-001    -1.082221E+002   1.953905E-001    -1.828750E+001   
! Port Impedance  5.000000E+001    0.000000E+000    5.000000E+001    0.000000E+000    

4.300000E-001    1.956882E-001    -2.073511E+001   9.403549E-001    -1.107571E+002   9.403549E-001    -1.107571E+002   1.956882E-001    -2.073511E+001   
! Port Impedance  5.000000E+001    0.000000E+000    5.000000E+001    0.000000E+000    

4.400000E-001    1.957330E-001    -2.317937E+001   9.396646E-001    -1.132918E+002   9.396646E-001    -1.132918E+002   1.957330E-001    -2.317937E+001   
! Port Impedance  5.000000E+001    0.000000E+000    5.000000E+001    0.000000E+000    

4.500000E-001    1.955234E-001    -2.562027E+001   9.390260E-001    -1.158266E+002   9.390260E-001    -1.158266E+002   1.955234E-001    -2.562027E+001   
! Port Impedance  5.000000E+001    0.000000E+000    5.000000E+001    0.000000E+000    

4.600000E-001    1.950582E-001    -2.805773E+001   9.384389E-001    -1.183616E+002   9.384389E-001    -1.183616E+002   1.950582E-001    -2.805773E+001   
! Port Impedance  5.000000E+001    0.000000E+000    5.000000E+001    0.000000E+000    

4.700000E-001    1.943363E-001    -3.049168E+001   9.379029E-001    -1.208971E+002   9.379029E-001    -1.208971E+002   1.943363E-001    -3.049168E+001   
! Port Impedance  5.000000E+001    0.000000E+000    5.000000E+001    0.000000E+000    

4.800000E-001    1.933566E-001    -3.292201E+001   9.374174E-001    -1.234333E+002   9.374174E-001    -1.234333E+002   1.933566E-001    -3.292201E+001   
! Port Impedance  5.000000E+001    0.000000E+000    5.000000E+001    0.000000E+000    

4.900000E-001    1.921186E-001    -3.534859E+001   9.369817E-001    -1.259704E+002   9.369817E-001    -1.259704E+002   1.921186E-001    -3.534859E+001   
! Port Impedance  5.000000E+001    0.000000E+000    5.000000E+001    0.000000E+000    

5.000000E-001    1.906216E-001    -3.777122E+001   9.365947E-001    -1.285086E+002   9.365947E-001    -1.285086E+002   1.906216E-001    -3.777122E+001   
! Port Impedance  5.000000E+001    0.000000E+000    5.000000E+001    0.000000E+000    

5.100000E-001    1.888653E-001    -4.018967E+001   9.362551E-001    -1.310481E+002   9.362551E-001    -1.310481E+002   1.888653E-001    -4.018967E+001   
! Port Impedance  5.000000E+001    0.000000E+000    5.000000E+001    0.000000E+000    

5.200000E-001    1.868496E-001    -4.260367E+001   9.359615E-001    -1.335891E+002   9.359615E-001    -1.335891E+002   1.868496E-001    -4.260367E+001   
! Port Impedance  5.000000E+001    0.000000E+000    5.000000E+001    0.000000E+000    

5.300000E-001    1.845747E-001    -4.501284E+001   9.357119E-001    -1.361319E+002   9.357119E-001    -1.361319E+002   1.845747E-001    -4.501284E+001   
! Port Impedance  5.000000E+001    0.000000E+000    5.000000E+001    0.000000E+000    

5.400000E-001    1.820409E-001    -4.741676E+001   9.355045E-001    -1.386767E+002   9.355045E-001    -1.386767E+002   1.820409E-001    -4.741676E+001   
! Port Impedance  5.000000E+001    0.000000E+000    5.000000E+001    0.000000E+000    

5.500000E-001    1.792489E-001    -4.981492E+001   9.353370E-001    -1.412235E+002   9.353370E-001    -1.412235E+002   1.792489E-001    -4.981492E+001   
! Port Impedance  5.000000E+001    0.000000E+000    5.000000E+001    0.000000E+000    

5.600000E-001    1.761996E-001    -5.220667E+001   9.352071E-001    -1.437727E+002   9.352071E-001    -1.437727E+002   1.761996E-001    -5.220667E+001   
! Port Impedance  5.000000E+001    0.000000E+000    5.000000E+001    0.000000E+000    

5.700000E-001    1.728942E-001    -5.459127E+001   9.351119E-001    -1.463243E+002   9.351119E-001    -1.463243E+002   1.728942E-001    -5.459127E+001   
! Port Impedance  5.000000E+001    0.000000E+000    5.000000E+001    0.000000E+000    

5.800000E-001    1.693342E-001    -5.696781E+001   9.350488E-001    -1.488786E+002   9.350488E-001    -1.488786E+002   1.693342E-001    -5.696781E+001   
! Port Impedance  5.000000E+001    0.000000E+000    5.000000E+001    0.000000E+000    

5.900000E-001    1.655217E-001    -5.933521E+001   9.350144E-001    -1.514357E+002   9.350144E-001    -1.514357E+002   1.655217E-001    -5.933521E+001   
! Port Impedance  5.000000E+001    0.000000E+000    5.000000E+001    0.000000E+000    

6.000000E-001    1.614587E-001    -6.169217E+001   9.350057E-001    -1.539957E+002   9.350057E-001    -1.539957E+002   1.614587E-001    -6.169217E+001   
! Port Impedance  5.000000E+001    0.000000E+000    5.000000E+001    0.000000E+000    

6.100000E-001    1.571480E-001    -6.403713E+001   9.350191E-001    -1.565588E+002   9.350191E-001    -1.565588E+002   1.571480E-001    -6.403713E+001   
! Port Impedance  5.000000E+001    0.000000E+000    5.000000E+001    0.000000E+000    

6.200000E-001    1.525927E-001    -6.636824E+001   9.350510E-001    -1.591251E+002   9.350510E-001    -1.591251E+002   1.525927E-001    -6.636824E+001   
! Port Impedance  5.000000E+001    0.000000E+000    5.000000E+001    0.000000E+000    

6.300000E-001    1.477961E-001    -6.868324E+001   9.350975E-001    -1.616946E+002   9.350975E-001    -1.616946E+002   1.477961E-001    -6.868324E+001   
! Port Impedance  5.000000E+001    0.000000E+000    5.000000E+001    0.000000E+000    

6.400000E-001    1.427624E-001    -7.097939E+001   9.351548E-001    -1.642675E+002   9.351548E-001    -1.642675E+002   1.427624E-001    -7.097939E+001   
! Port Impedance  5.000000E+001    0.000000E+000    5.000000E+001    0.000000E+000    

6.500000E-001    1.374959E-001    -7.325336E+001   9.352187E-001    -1.668438E+002   9.352187E-001    -1.668438E+002   1.374959E-001    -7.325336E+001   
! Port Impedance  5.000000E+001    0.000000E+000    5.000000E+001    0.000000E+000    

6.600000E-001    1.320018E-001    -7.550108E+001   9.352850E-001    -1.694235E+002   9.352850E-001    -1.694235E+002   1.320018E-001    -7.550108E+001   
! Port Impedance  5.000000E+001    0.000000E+000    5.000000E+001    0.000000E+000    

6.700000E-001    1.262856E-001    -7.771748E+001   9.353496E-001    -1.720068E+002   9.353496E-001    -1.720068E+002   1.262856E-001    -7.771748E+001   
! Port Impedance  5.000000E+001    0.000000E+000    5.000000E+001    0.000000E+000    

6.800000E-001    1.203535E-001    -7.989625E+001   9.354079E-001    -1.745935E+002   9.354079E-001    -1.745935E+002   1.203535E-001    -7.989625E+001   
! Port Impedance  5.000000E+001    0.000000E+000    5.000000E+001    0.000000E+000    

6.900000E-001    1.142126E-001    -8.202940E+001   9.354556E-001    -1.771838E+002   9.354556E-001    -1.771838E+002   1.142126E-001    -8.202940E+001   
! Port Impedance  5.000000E+001    0.000000E+000    5.000000E+001    0.000000E+000    

7.000000E-001    1.078706E-001    -8.410672E+001   9.354883E-001    -1.797775E+002   9.354883E-001    -1.797775E+002   1.078706E-001    -8.410672E+001   
! Port Impedance  5.000000E+001    0.000000E+000    5.000000E+001    0.000000E+000    

7.100000E-001    1.013362E-001    -8.611492E+001   9.355017E-001    1.776255E+002    9.355017E-001    1.776255E+002    1.013362E-001    -8.611492E+001   
! Port Impedance  5.000000E+001    0.000000E+000    5.000000E+001    0.000000E+000    

7.200000E-001    9.461915E-002    -8.803645E+001   9.354912E-001    1.750250E+002    9.354912E-001    1.750250E+002    9.461915E-002    -8.803645E+001   
! Port Impedance  5.000000E+001    0.000000E+000    5.000000E+001    0.000000E+000    

7.300000E-001    8.773058E-002    -8.984762E+001   9.354526E-001    1.724214E+002    9.354526E-001    1.724214E+002    8.773058E-002    -8.984762E+001   
! Port Impedance  5.000000E+001    0.000000E+000    5.000000E+001    0.000000E+000    

7.400000E-001    8.068332E-002    -9.151571E+001   9.353817E-001    1.698147E+002    9.353817E-001    1.698147E+002    8.068332E-002    -9.151571E+001   
! Port Impedance  5.000000E+001    0.000000E+000    5.000000E+001    0.000000E+000    

7.500000E-001    7.349260E-002    -9.299431E+001   9.352743E-001    1.672049E+002    9.352743E-001    1.672049E+002    7.349260E-002    -9.299431E+001   
! Port Impedance  5.000000E+001    0.000000E+000    5.000000E+001    0.000000E+000    

7.600000E-001    6.617708E-002    -9.421540E+001   9.351265E-001    1.645924E+002    9.351265E-001    1.645924E+002    6.617708E-002    -9.421540E+001   
! Port Impedance  5.000000E+001    0.000000E+000    5.000000E+001    0.000000E+000    

7.700000E-001    5.876083E-002    -9.507546E+001   9.349346E-001    1.619772E+002    9.349346E-001    1.619772E+002    5.876083E-002    -9.507546E+001   
! Port Impedance  5.000000E+001    0.000000E+000    5.000000E+001    0.000000E+000    

7.800000E-001    5.127696E-002    -9.540950E+001   9.346949E-001    1.593596E+002    9.346949E-001    1.593596E+002    5.127696E-002    -9.540950E+001   
! Port Impedance  5.000000E+001    0.000000E+000    5.000000E+001    0.000000E+000    

7.900000E-001    4.377515E-002    -9.493994E+001   9.344041E-001    1.567398E+002    9.344041E-001    1.567398E+002    4.377515E-002    -9.493994E+001   
! Port Impedance  5.000000E+001    0.000000E+000    5.000000E+001    0.000000E+000    

8.000000E-001    3.633817E-002    -9.316834E+001   9.340593E-001    1.541180E+002    9.340593E-001    1.541180E+002    3.633817E-002    -9.316834E+001   
! Port Impedance  5.000000E+001    0.000000E+000    5.000000E+001    0.000000E+000    

8.100000E-001    2.912231E-002    -8.913332E+001   9.336576E-001    1.514944E+002    9.336576E-001    1.514944E+002    2.912231E-002    -8.913332E+001   
! Port Impedance  5.000000E+001    0.000000E+000    5.000000E+001    0.000000E+000    

8.200000E-001    2.246545E-002    -8.087458E+001   9.331965E-001    1.488694E+002    9.331965E-001    1.488694E+002    2.246545E-002    -8.087458E+001   
! Port Impedance  5.000000E+001    0.000000E+000    5.000000E+001    0.000000E+000    

