! Created Wed Oct  9 17:02:41 2019
# hz S ma R 50
! 4 Port Network Data from SP1.SP block
! freq  magS11  angS11  magS12  angS12  magS13  angS13  magS14  angS14  
!       magS21  angS21  magS22  angS22  magS23  angS23  magS24  angS24  
!       magS31  angS31  magS32  angS32  magS33  angS33  magS34  angS34  
!       magS41  angS41  magS42  angS42  magS43  angS43  magS44  angS44  
!     
            100000      0.0229801516        0.690252991        0.977014939      -0.0805433119                  0                  0                  0                  0
                      0.977014939      -0.0805433119       0.0229801516        0.690252991                  0                  0                  0                  0
                                0                  0                  0                  0       0.0229801516        0.690252991        0.977014939      -0.0805433119
                                0                  0                  0                  0        0.977014939      -0.0805433119       0.0229801516        0.690252991

        101151.616      0.0229810688        0.697778899        0.977013981      -0.0814584583                  0                  0                  0                  0
                      0.977013981      -0.0814584583       0.0229810688        0.697778899                  0                  0                  0                  0
                                0                  0                  0                  0       0.0229810688        0.697778899        0.977013981      -0.0814584583
                                0                  0                  0                  0        0.977013981      -0.0814584583       0.0229810688        0.697778899

        102316.493      0.0229820057        0.705376546        0.977013003      -0.0823837784                  0                  0                  0                  0
                      0.977013003      -0.0823837784       0.0229820057        0.705376546                  0                  0                  0                  0
                                0                  0                  0                  0       0.0229820057        0.705376546        0.977013003      -0.0823837784
                                0                  0                  0                  0        0.977013003      -0.0823837784       0.0229820057        0.705376546

        103494.786      0.0229829613        0.713046957        0.977012007      -0.0833193978                  0                  0                  0                  0
                      0.977012007      -0.0833193978       0.0229829613        0.713046957                  0                  0                  0                  0
                                0                  0                  0                  0       0.0229829613        0.713046957        0.977012007      -0.0833193978
                                0                  0                  0                  0        0.977012007      -0.0833193978       0.0229829613        0.713046957

        104686.648      0.0229839362         0.72079047        0.977010992      -0.0842654236                  0                  0                  0                  0
                      0.977010992      -0.0842654236       0.0229839362         0.72079047                  0                  0                  0                  0
                                0                  0                  0                  0       0.0229839362         0.72079047        0.977010992      -0.0842654236
                                0                  0                  0                  0        0.977010992      -0.0842654236       0.0229839362         0.72079047

        105892.236      0.0229849321        0.728606684        0.977009955      -0.0852219427                  0                  0                  0                  0
                      0.977009955      -0.0852219427       0.0229849321        0.728606684                  0                  0                  0                  0
                                0                  0                  0                  0       0.0229849321        0.728606684        0.977009955      -0.0852219427
                                0                  0                  0                  0        0.977009955      -0.0852219427       0.0229849321        0.728606684

        107111.707      0.0229859507        0.736495342        0.977008896      -0.0861890472                  0                  0                  0                  0
                      0.977008896      -0.0861890472       0.0229859507        0.736495342                  0                  0                  0                  0
                                0                  0                  0                  0       0.0229859507        0.736495342        0.977008896      -0.0861890472
                                0                  0                  0                  0        0.977008896      -0.0861890472       0.0229859507        0.736495342

        108345.222      0.0229869915         0.74445712        0.977007814      -0.0871668575                  0                  0                  0                  0
                      0.977007814      -0.0871668575       0.0229869915         0.74445712                  0                  0                  0                  0
                                0                  0                  0                  0       0.0229869915         0.74445712        0.977007814      -0.0871668575
                                0                  0                  0                  0        0.977007814      -0.0871668575       0.0229869915         0.74445712

        109592.943      0.0229880539        0.752492932        0.977006711       -0.088155502                  0                  0                  0                  0
                      0.977006711       -0.088155502       0.0229880539        0.752492932                  0                  0                  0                  0
                                0                  0                  0                  0       0.0229880539        0.752492932        0.977006711       -0.088155502
                                0                  0                  0                  0        0.977006711       -0.088155502       0.0229880539        0.752492932

        110855.032      0.0229891382        0.760603176        0.977005586      -0.0891550958                  0                  0                  0                  0
                      0.977005586      -0.0891550958       0.0229891382        0.760603176                  0                  0                  0                  0
                                0                  0                  0                  0       0.0229891382        0.760603176        0.977005586      -0.0891550958
                                0                  0                  0                  0        0.977005586      -0.0891550958       0.0229891382        0.760603176

        112131.656      0.0229902454        0.768787739        0.977004438      -0.0901657405                  0                  0                  0                  0
                      0.977004438      -0.0901657405       0.0229902454        0.768787739                  0                  0                  0                  0
                                0                  0                  0                  0       0.0229902454        0.768787739        0.977004438      -0.0901657405
                                0                  0                  0                  0        0.977004438      -0.0901657405       0.0229902454        0.768787739

        113422.982      0.0229913765        0.777046664        0.977003266      -0.0911875434                  0                  0                  0                  0
                      0.977003266      -0.0911875434       0.0229913765        0.777046664                  0                  0                  0                  0
                                0                  0                  0                  0       0.0229913765        0.777046664        0.977003266      -0.0911875434
                                0                  0                  0                  0        0.977003266      -0.0911875434       0.0229913765        0.777046664

        114729.178      0.0229925309        0.785380739        0.977002071      -0.0922206339                  0                  0                  0                  0
                      0.977002071      -0.0922206339       0.0229925309        0.785380739                  0                  0                  0                  0
                                0                  0                  0                  0       0.0229925309        0.785380739        0.977002071      -0.0922206339
                                0                  0                  0                  0        0.977002071      -0.0922206339       0.0229925309        0.785380739

        116050.418      0.0229937079        0.793790902        0.977000853      -0.0932651468                  0                  0                  0                  0
                      0.977000853      -0.0932651468       0.0229937079        0.793790902                  0                  0                  0                  0
                                0                  0                  0                  0       0.0229937079        0.793790902        0.977000853      -0.0932651468
                                0                  0                  0                  0        0.977000853      -0.0932651468       0.0229937079        0.793790902

        117386.872      0.0229949082        0.802277213        0.976999612      -0.0943211942                  0                  0                  0                  0
                      0.976999612      -0.0943211942       0.0229949082        0.802277213                  0                  0                  0                  0
                                0                  0                  0                  0       0.0229949082        0.802277213        0.976999612      -0.0943211942
                                0                  0                  0                  0        0.976999612      -0.0943211942       0.0229949082        0.802277213

        118738.718      0.0229961342        0.810838921        0.976998346      -0.0953888671                  0                  0                  0                  0
                      0.976998346      -0.0953888671       0.0229961342        0.810838921                  0                  0                  0                  0
                                0                  0                  0                  0       0.0229961342        0.810838921        0.976998346      -0.0953888671
                                0                  0                  0                  0        0.976998346      -0.0953888671       0.0229961342        0.810838921

        120106.131      0.0229973873        0.819475594        0.976997052      -0.0964682664                  0                  0                  0                  0
                      0.976997052      -0.0964682664       0.0229973873        0.819475594                  0                  0                  0                  0
                                0                  0                  0                  0       0.0229973873        0.819475594        0.976997052      -0.0964682664
                                0                  0                  0                  0        0.976997052      -0.0964682664       0.0229973873        0.819475594

        121489.292      0.0229986667        0.828188116        0.976995732      -0.0975595309                  0                  0                  0                  0
                      0.976995732      -0.0975595309       0.0229986667        0.828188116                  0                  0                  0                  0
                                0                  0                  0                  0       0.0229986667        0.828188116        0.976995732      -0.0975595309
                                0                  0                  0                  0        0.976995732      -0.0975595309       0.0229986667        0.828188116

        122888.382      0.0229999715        0.836977606        0.976994386      -0.0986628068                  0                  0                  0                  0
                      0.976994386      -0.0986628068       0.0229999715        0.836977606                  0                  0                  0                  0
                                0                  0                  0                  0       0.0229999715        0.836977606        0.976994386      -0.0986628068
                                0                  0                  0                  0        0.976994386      -0.0986628068       0.0229999715        0.836977606

        124303.584      0.0230013027        0.845843845        0.976993015      -0.0997782058                  0                  0                  0                  0
                      0.976993015      -0.0997782058       0.0230013027        0.845843845                  0                  0                  0                  0
                                0                  0                  0                  0       0.0230013027        0.845843845        0.976993015      -0.0997782058
                                0                  0                  0                  0        0.976993015      -0.0997782058       0.0230013027        0.845843845

        125735.083      0.0230026632        0.854785475        0.976991614        -0.10090581                  0                  0                  0                  0
                      0.976991614        -0.10090581       0.0230026632        0.854785475                  0                  0                  0                  0
                                0                  0                  0                  0       0.0230026632        0.854785475        0.976991614        -0.10090581
                                0                  0                  0                  0        0.976991614        -0.10090581       0.0230026632        0.854785475

        127183.068      0.0230040547        0.863801908        0.976990181       -0.102045725                  0                  0                  0                  0
                      0.976990181       -0.102045725       0.0230040547        0.863801908                  0                  0                  0                  0
                                0                  0                  0                  0       0.0230040547        0.863801908        0.976990181       -0.102045725
                                0                  0                  0                  0        0.976990181       -0.102045725       0.0230040547        0.863801908

        128647.728      0.0230054746         0.87289517        0.976988721       -0.103198125                  0                  0                  0                  0
                      0.976988721       -0.103198125       0.0230054746         0.87289517                  0                  0                  0                  0
                                0                  0                  0                  0       0.0230054746         0.87289517        0.976988721       -0.103198125
                                0                  0                  0                  0        0.976988721       -0.103198125       0.0230054746         0.87289517

        130129.255      0.0230069196        0.882067728        0.976987236         -0.1043632                  0                  0                  0                  0
                      0.976987236         -0.1043632       0.0230069196        0.882067728                  0                  0                  0                  0
                                0                  0                  0                  0       0.0230069196        0.882067728        0.976987236         -0.1043632
                                0                  0                  0                  0        0.976987236         -0.1043632       0.0230069196        0.882067728

        131627.844      0.0230083907        0.891319488        0.976985725       -0.105541072                  0                  0                  0                  0
                      0.976985725       -0.105541072       0.0230083907        0.891319488                  0                  0                  0                  0
                                0                  0                  0                  0       0.0230083907        0.891319488        0.976985725       -0.105541072
                                0                  0                  0                  0        0.976985725       -0.105541072       0.0230083907        0.891319488

        133143.691      0.0230098917        0.900648407        0.976984184       -0.106731812                  0                  0                  0                  0
                      0.976984184       -0.106731812       0.0230098917        0.900648407                  0                  0                  0                  0
                                0                  0                  0                  0       0.0230098917        0.900648407        0.976984184       -0.106731812
                                0                  0                  0                  0        0.976984184       -0.106731812       0.0230098917        0.900648407

        134676.994      0.0230114254        0.910053031         0.97698261        -0.10793551                  0                  0                  0                  0
                       0.97698261        -0.10793551       0.0230114254        0.910053031                  0                  0                  0                  0
                                0                  0                  0                  0       0.0230114254        0.910053031         0.97698261        -0.10793551
                                0                  0                  0                  0         0.97698261        -0.10793551       0.0230114254        0.910053031

        136227.955      0.0230129914        0.919533905        0.976981004        -0.10915231                  0                  0                  0                  0
                      0.976981004        -0.10915231       0.0230129914        0.919533905                  0                  0                  0                  0
                                0                  0                  0                  0       0.0230129914        0.919533905        0.976981004        -0.10915231
                                0                  0                  0                  0        0.976981004        -0.10915231       0.0230129914        0.919533905

        137796.778       0.023014589        0.929091922        0.976979367       -0.110382366                  0                  0                  0                  0
                      0.976979367       -0.110382366        0.023014589        0.929091922                  0                  0                  0                  0
                                0                  0                  0                  0        0.023014589        0.929091922        0.976979367       -0.110382366
