!Scilab S-parameters Toolbox
!Created on 02/14/14 at 14:46:00
!Filename: C:\Technical Info\SignalIntegrity\SignalIntegrityTests\ScilabTest\SparamToolBox\Utilities\S2P_MaskPlotter\USB3_CableIL.s2p
# GHZ S RI R 50.00
1.000000000e-01 3.162277660e-01 1.000000000e-09 8.409740766e-01 1.000000000e-09 8.409740766e-01 1.000000000e-09 3.162277660e-01 1.000000000e-09
1.037000000e-01 3.162277660e-01 1.000000000e-09 8.398844976e-01 1.000000000e-09 8.398844976e-01 1.000000000e-09 3.162277660e-01 1.000000000e-09
1.074000000e-01 3.162277660e-01 1.000000000e-09 8.387963302e-01 1.000000000e-09 8.387963302e-01 1.000000000e-09 3.162277660e-01 1.000000000e-09
1.111000000e-01 3.162277660e-01 1.000000000e-09 8.377095727e-01 1.000000000e-09 8.377095727e-01 1.000000000e-09 3.162277660e-01 1.000000000e-09
1.148000000e-01 3.162277660e-01 1.000000000e-09 8.366242232e-01 1.000000000e-09 8.366242232e-01 1.000000000e-09 3.162277660e-01 1.000000000e-09
1.185000000e-01 3.162277660e-01 1.000000000e-09 8.355402799e-01 1.000000000e-09 8.355402799e-01 1.000000000e-09 3.162277660e-01 1.000000000e-09
1.222000000e-01 3.162277660e-01 1.000000000e-09 8.344577410e-01 1.000000000e-09 8.344577410e-01 1.000000000e-09 3.162277660e-01 1.000000000e-09
1.259000000e-01 3.162277660e-01 1.000000000e-09 8.333766046e-01 1.000000000e-09 8.333766046e-01 1.000000000e-09 3.162277660e-01 1.000000000e-09
1.296000000e-01 3.162277660e-01 1.000000000e-09 8.322968690e-01 1.000000000e-09 8.322968690e-01 1.000000000e-09 3.162277660e-01 1.000000000e-09
1.333000000e-01 3.162277660e-01 1.000000000e-09 8.312185323e-01 1.000000000e-09 8.312185323e-01 1.000000000e-09 3.162277660e-01 1.000000000e-09
1.370000000e-01 3.162277660e-01 1.000000000e-09 8.301415927e-01 1.000000000e-09 8.301415927e-01 1.000000000e-09 3.162277660e-01 1.000000000e-09
1.407000000e-01 3.162277660e-01 1.000000000e-09 8.290660484e-01 1.000000000e-09 8.290660484e-01 1.000000000e-09 3.162277660e-01 1.000000000e-09
1.444000000e-01 3.162277660e-01 1.000000000e-09 8.279918976e-01 1.000000000e-09 8.279918976e-01 1.000000000e-09 3.162277660e-01 1.000000000e-09
1.481000000e-01 3.162277660e-01 1.000000000e-09 8.269191384e-01 1.000000000e-09 8.269191384e-01 1.000000000e-09 3.162277660e-01 1.000000000e-09
1.518000000e-01 3.162277660e-01 1.000000000e-09 8.258477692e-01 1.000000000e-09 8.258477692e-01 1.000000000e-09 3.162277660e-01 1.000000000e-09
1.555000000e-01 3.162277660e-01 1.000000000e-09 8.247777880e-01 1.000000000e-09 8.247777880e-01 1.000000000e-09 3.162277660e-01 1.000000000e-09
1.592000000e-01 3.162277660e-01 1.000000000e-09 8.237091932e-01 1.000000000e-09 8.237091932e-01 1.000000000e-09 3.162277660e-01 1.000000000e-09
1.629000000e-01 3.162277660e-01 1.000000000e-09 8.226419828e-01 1.000000000e-09 8.226419828e-01 1.000000000e-09 3.162277660e-01 1.000000000e-09
1.666000000e-01 3.162277660e-01 1.000000000e-09 8.215761551e-01 1.000000000e-09 8.215761551e-01 1.000000000e-09 3.162277660e-01 1.000000000e-09
1.703000000e-01 3.162277660e-01 1.000000000e-09 8.205117083e-01 1.000000000e-09 8.205117083e-01 1.000000000e-09 3.162277660e-01 1.000000000e-09
1.740000000e-01 3.162277660e-01 1.000000000e-09 8.194486406e-01 1.000000000e-09 8.194486406e-01 1.000000000e-09 3.162277660e-01 1.000000000e-09
1.777000000e-01 3.162277660e-01 1.000000000e-09 8.183869503e-01 1.000000000e-09 8.183869503e-01 1.000000000e-09 3.162277660e-01 1.000000000e-09
1.814000000e-01 3.162277660e-01 1.000000000e-09 8.173266355e-01 1.000000000e-09 8.173266355e-01 1.000000000e-09 3.162277660e-01 1.000000000e-09
1.851000000e-01 3.162277660e-01 1.000000000e-09 8.162676944e-01 1.000000000e-09 8.162676944e-01 1.000000000e-09 3.162277660e-01 1.000000000e-09
1.888000000e-01 3.162277660e-01 1.000000000e-09 8.152101254e-01 1.000000000e-09 8.152101254e-01 1.000000000e-09 3.162277660e-01 1.000000000e-09
1.925000000e-01 3.162277660e-01 1.000000000e-09 8.141539265e-01 1.000000000e-09 8.141539265e-01 1.000000000e-09 3.162277660e-01 1.000000000e-09
1.962000000e-01 3.162277660e-01 1.000000000e-09 8.130990961e-01 1.000000000e-09 8.130990961e-01 1.000000000e-09 3.162277660e-01 1.000000000e-09
1.999000000e-01 3.162277660e-01 1.000000000e-09 8.120456323e-01 1.000000000e-09 8.120456323e-01 1.000000000e-09 3.162277660e-01 1.000000000e-09
2.036000000e-01 3.162277660e-01 1.000000000e-09 8.109935334e-01 1.000000000e-09 8.109935334e-01 1.000000000e-09 3.162277660e-01 1.000000000e-09
2.073000000e-01 3.162277660e-01 1.000000000e-09 8.099427976e-01 1.000000000e-09 8.099427976e-01 1.000000000e-09 3.162277660e-01 1.000000000e-09
2.110000000e-01 3.162277660e-01 1.000000000e-09 8.088934232e-01 1.000000000e-09 8.088934232e-01 1.000000000e-09 3.162277660e-01 1.000000000e-09
2.147000000e-01 3.162277660e-01 1.000000000e-09 8.078454084e-01 1.000000000e-09 8.078454084e-01 1.000000000e-09 3.162277660e-01 1.000000000e-09
2.184000000e-01 3.162277660e-01 1.000000000e-09 8.067987513e-01 1.000000000e-09 8.067987513e-01 1.000000000e-09 3.162277660e-01 1.000000000e-09
2.221000000e-01 3.162277660e-01 1.000000000e-09 8.057534504e-01 1.000000000e-09 8.057534504e-01 1.000000000e-09 3.162277660e-01 1.000000000e-09
2.258000000e-01 3.162277660e-01 1.000000000e-09 8.047095037e-01 1.000000000e-09 8.047095037e-01 1.000000000e-09 3.162277660e-01 1.000000000e-09
2.295000000e-01 3.162277660e-01 1.000000000e-09 8.036669096e-01 1.000000000e-09 8.036669096e-01 1.000000000e-09 3.162277660e-01 1.000000000e-09
2.332000000e-01 3.162277660e-01 1.000000000e-09 8.026256663e-01 1.000000000e-09 8.026256663e-01 1.000000000e-09 3.162277660e-01 1.000000000e-09
2.369000000e-01 3.162277660e-01 1.000000000e-09 8.015857721e-01 1.000000000e-09 8.015857721e-01 1.000000000e-09 3.162277660e-01 1.000000000e-09
2.406000000e-01 3.162277660e-01 1.000000000e-09 8.005472252e-01 1.000000000e-09 8.005472252e-01 1.000000000e-09 3.162277660e-01 1.000000000e-09
2.443000000e-01 3.162277660e-01 1.000000000e-09 7.995100238e-01 1.000000000e-09 7.995100238e-01 1.000000000e-09 3.162277660e-01 1.000000000e-09
2.480000000e-01 3.162277660e-01 1.000000000e-09 7.984741662e-01 1.000000000e-09 7.984741662e-01 1.000000000e-09 3.162277660e-01 1.000000000e-09
2.517000000e-01 3.162277660e-01 1.000000000e-09 7.974396507e-01 1.000000000e-09 7.974396507e-01 1.000000000e-09 3.162277660e-01 1.000000000e-09
2.554000000e-01 3.162277660e-01 1.000000000e-09 7.964064756e-01 1.000000000e-09 7.964064756e-01 1.000000000e-09 3.162277660e-01 1.000000000e-09
2.591000000e-01 3.162277660e-01 1.000000000e-09 7.953746390e-01 1.000000000e-09 7.953746390e-01 1.000000000e-09 3.162277660e-01 1.000000000e-09
2.628000000e-01 3.162277660e-01 1.000000000e-09 7.943441393e-01 1.000000000e-09 7.943441393e-01 1.000000000e-09 3.162277660e-01 1.000000000e-09
2.665000000e-01 3.162277660e-01 1.000000000e-09 7.933149747e-01 1.000000000e-09 7.933149747e-01 1.000000000e-09 3.162277660e-01 1.000000000e-09
2.702000000e-01 3.162277660e-01 1.000000000e-09 7.922871436e-01 1.000000000e-09 7.922871436e-01 1.000000000e-09 3.162277660e-01 1.000000000e-09
2.739000000e-01 3.162277660e-01 1.000000000e-09 7.912606441e-01 1.000000000e-09 7.912606441e-01 1.000000000e-09 3.162277660e-01 1.000000000e-09
2.776000000e-01 3.162277660e-01 1.000000000e-09 7.902354745e-01 1.000000000e-09 7.902354745e-01 1.000000000e-09 3.162277660e-01 1.000000000e-09
2.813000000e-01 3.162277660e-01 1.000000000e-09 7.892116332e-01 1.000000000e-09 7.892116332e-01 1.000000000e-09 3.162277660e-01 1.000000000e-09
2.850000000e-01 3.162277660e-01 1.000000000e-09 7.881891184e-01 1.000000000e-09 7.881891184e-01 1.000000000e-09 3.162277660e-01 1.000000000e-09
2.887000000e-01 3.162277660e-01 1.000000000e-09 7.871679284e-01 1.000000000e-09 7.871679284e-01 1.000000000e-09 3.162277660e-01 1.000000000e-09
2.924000000e-01 3.162277660e-01 1.000000000e-09 7.861480614e-01 1.000000000e-09 7.861480614e-01 1.000000000e-09 3.162277660e-01 1.000000000e-09
2.961000000e-01 3.162277660e-01 1.000000000e-09 7.851295158e-01 1.000000000e-09 7.851295158e-01 1.000000000e-09 3.162277660e-01 1.000000000e-09
2.998000000e-01 3.162277660e-01 1.000000000e-09 7.841122899e-01 1.000000000e-09 7.841122899e-01 1.000000000e-09 3.162277660e-01 1.000000000e-09
3.035000000e-01 3.162277660e-01 1.000000000e-09 7.830963818e-01 1.000000000e-09 7.830963818e-01 1.000000000e-09 3.162277660e-01 1.000000000e-09
3.072000000e-01 3.162277660e-01 1.000000000e-09 7.820817900e-01 1.000000000e-09 7.820817900e-01 1.000000000e-09 3.162277660e-01 1.000000000e-09
3.109000000e-01 3.162277660e-01 1.000000000e-09 7.810685128e-01 1.000000000e-09 7.810685128e-01 1.000000000e-09 3.162277660e-01 1.000000000e-09
3.146000000e-01 3.162277660e-01 1.000000000e-09 7.800565483e-01 1.000000000e-09 7.800565483e-01 1.000000000e-09 3.162277660e-01 1.000000000e-09
3.183000000e-01 3.162277660e-01 1.000000000e-09 7.790458950e-01 1.000000000e-09 7.790458950e-01 1.000000000e-09 3.162277660e-01 1.000000000e-09
3.220000000e-01 3.162277660e-01 1.000000000e-09 7.780365510e-01 1.000000000e-09 7.780365510e-01 1.000000000e-09 3.162277660e-01 1.000000000e-09
3.257000000e-01 3.162277660e-01 1.000000000e-09 7.770285148e-01 1.000000000e-09 7.770285148e-01 1.000000000e-09 3.162277660e-01 1.000000000e-09
3.294000000e-01 3.162277660e-01 1.000000000e-09 7.760217847e-01 1.000000000e-09 7.760217847e-01 1.000000000e-09 3.162277660e-01 1.000000000e-09
3.331000000e-01 3.162277660e-01 1.000000000e-09 7.750163588e-01 1.000000000e-09 7.750163588e-01 1.000000000e-09 3.162277660e-01 1.000000000e-09
3.368000000e-01 3.162277660e-01 1.000000000e-09 7.740122356e-01 1.000000000e-09 7.740122356e-01 1.000000000e-09 3.162277660e-01 1.000000000e-09
3.405000000e-01 3.162277660e-01 1.000000000e-09 7.730094134e-01 1.000000000e-09 7.730094134e-01 1.000000000e-09 3.162277660e-01 1.000000000e-09
3.442000000e-01 3.162277660e-01 1.000000000e-09 7.720078904e-01 1.000000000e-09 7.720078904e-01 1.000000000e-09 3.162277660e-01 1.000000000e-09
3.479000000e-01 3.162277660e-01 1.000000000e-09 7.710076650e-01 1.000000000e-09 7.710076650e-01 1.000000000e-09 3.162277660e-01 1.000000000e-09
3.516000000e-01 3.162277660e-01 1.000000000e-09 7.700087356e-01 1.000000000e-09 7.700087356e-01 1.000000000e-09 3.162277660e-01 1.000000000e-09
3.553000000e-01 3.162277660e-01 1.000000000e-09 7.690111003e-01 1.000000000e-09 7.690111003e-01 1.000000000e-09 3.162277660e-01 1.000000000e-09
3.590000000e-01 3.162277660e-01 1.000000000e-09 7.680147576e-01 1.000000000e-09 7.680147576e-01 1.000000000e-09 3.162277660e-01 1.000000000e-09
3.627000000e-01 3.162277660e-01 1.000000000e-09 7.670197058e-01 1.000000000e-09 7.670197058e-01 1.000000000e-09 3.162277660e-01 1.000000000e-09
3.664000000e-01 3.162277660e-01 1.000000000e-09 7.660259432e-01 1.000000000e-09 7.660259432e-01 1.000000000e-09 3.162277660e-01 1.000000000e-09
3.701000000e-01 3.162277660e-01 1.000000000e-09 7.650334682e-01 1.000000000e-09 7.650334682e-01 1.000000000e-09 3.162277660e-01 1.000000000e-09
3.738000000e-01 3.162277660e-01 1.000000000e-09 7.640422789e-01 1.000000000e-09 7.640422789e-01 1.000000000e-09 3.162277660e-01 1.000000000e-09
3.775000000e-01 3.162277660e-01 1.000000000e-09 7.630523739e-01 1.000000000e-09 7.630523739e-01 1.000000000e-09 3.162277660e-01 1.000000000e-09
3.812000000e-01 3.162277660e-01 1.000000000e-09 7.620637515e-01 1.000000000e-09 7.620637515e-01 1.000000000e-09 3.162277660e-01 1.000000000e-09
3.849000000e-01 3.162277660e-01 1.000000000e-09 7.610764099e-01 1.000000000e-09 7.610764099e-01 1.000000000e-09 3.162277660e-01 1.000000000e-09
3.886000000e-01 3.162277660e-01 1.000000000e-09 7.600903475e-01 1.000000000e-09 7.600903475e-01 1.000000000e-09 3.162277660e-01 1.000000000e-09
3.923000000e-01 3.162277660e-01 1.000000000e-09 7.591055627e-01 1.000000000e-09 7.591055627e-01 1.000000000e-09 3.162277660e-01 1.000000000e-09
3.960000000e-01 3.162277660e-01 1.000000000e-09 7.581220537e-01 1.000000000e-09 7.581220537e-01 1.000000000e-09 3.162277660e-01 1.000000000e-09
3.997000000e-01 3.162277660e-01 1.000000000e-09 7.571398191e-01 1.000000000e-09 7.571398191e-01 1.000000000e-09 3.162277660e-01 1.000000000e-09
4.034000000e-01 3.162277660e-01 1.000000000e-09 7.561588570e-01 1.000000000e-09 7.561588570e-01 1.000000000e-09 3.162277660e-01 1.000000000e-09
4.071000000e-01 3.162277660e-01 1.000000000e-09 7.551791659e-01 1.000000000e-09 7.551791659e-01 1.000000000e-09 3.162277660e-01 1.000000000e-09
4.108000000e-01 3.162277660e-01 1.000000000e-09 7.542007441e-01 1.000000000e-09 7.542007441e-01 1.000000000e-09 3.162277660e-01 1.000000000e-09
4.145000000e-01 3.162277660e-01 1.000000000e-09 7.532235899e-01 1.000000000e-09 7.532235899e-01 1.000000000e-09 3.162277660e-01 1.000000000e-09
4.182000000e-01 3.162277660e-01 1.000000000e-09 7.522477017e-01 1.000000000e-09 7.522477017e-01 1.000000000e-09 3.162277660e-01 1.000000000e-09
4.219000000e-01 3.162277660e-01 1.000000000e-09 7.512730780e-01 1.000000000e-09 7.512730780e-01 1.000000000e-09 3.162277660e-01 1.000000000e-09
4.256000000e-01 3.162277660e-01 1.000000000e-09 7.502997169e-01 1.000000000e-09 7.502997169e-01 1.000000000e-09 3.162277660e-01 1.000000000e-09
4.293000000e-01 3.162277660e-01 1.000000000e-09 7.493276170e-01 1.000000000e-09 7.493276170e-01 1.000000000e-09 3.162277660e-01 1.000000000e-09
4.330000000e-01 3.162277660e-01 1.000000000e-09 7.483567765e-01 1.000000000e-09 7.483567765e-01 1.000000000e-09 3.162277660e-01 1.000000000e-09
4.367000000e-01 3.162277660e-01 1.000000000e-09 7.473871939e-01 1.000000000e-09 7.473871939e-01 1.000000000e-09 3.162277660e-01 1.000000000e-09
4.404000000e-01 3.162277660e-01 1.000000000e-09 7.464188675e-01 1.000000000e-09 7.464188675e-01 1.000000000e-09 3.162277660e-01 1.000000000e-09
4.441000000e-01 3.162277660e-01 1.000000000e-09 7.454517957e-01 1.000000000e-09 7.454517957e-01 1.000000000e-09 3.162277660e-01 1.000000000e-09
4.478000000e-01 3.162277660e-01 1.000000000e-09 7.444859768e-01 1.000000000e-09 7.444859768e-01 1.000000000e-09 3.162277660e-01 1.000000000e-09
4.515000000e-01 3.162277660e-01 1.000000000e-09 7.435214092e-01 1.000000000e-09 7.435214092e-01 1.000000000e-09 3.162277660e-01 1.000000000e-09
4.552000000e-01 3.162277660e-01 1.000000000e-09 7.425580914e-01 1.000000000e-09 7.425580914e-01 1.000000000e-09 3.162277660e-01 1.000000000e-09
4.589000000e-01 3.162277660e-01 1.000000000e-09 7.415960216e-01 1.000000000e-09 7.415960216e-01 1.000000000e-09 3.162277660e-01 1.000000000e-09
4.626000000e-01 3.162277660e-01 1.000000000e-09 7.406351983e-01 1.000000000e-09 7.406351983e-01 1.000000000e-09 3.162277660e-01 1.000000000e-09
4.663000000e-01 3.162277660e-01 1.000000000e-09 7.396756199e-01 1.000000000e-09 7.396756199e-01 1.000000000e-09 3.162277660e-01 1.000000000e-09
4.700000000e-01 3.162277660e-01 1.000000000e-09 7.387172847e-01 1.000000000e-09 7.387172847e-01 1.000000000e-09 3.162277660e-01 1.000000000e-09
4.737000000e-01 3.162277660e-01 1.000000000e-09 7.377601911e-01 1.000000000e-09 7.377601911e-01 1.000000000e-09 3.162277660e-01 1.000000000e-09
4.774000000e-01 3.162277660e-01 1.000000000e-09 7.368043376e-01 1.000000000e-09 7.368043376e-01 1.000000000e-09 3.162277660e-01 1.000000000e-09
4.811000000e-01 3.162277660e-01 1.000000000e-09 7.358497225e-01 1.000000000e-09 7.358497225e-01 1.000000000e-09 3.162277660e-01 1.000000000e-09
4.848000000e-01 3.162277660e-01 1.000000000e-09 7.348963442e-01 1.000000000e-09 7.348963442e-01 1.000000000e-09 3.162277660e-01 1.000000000e-09
4.885000000e-01 3.162277660e-01 1.000000000e-09 7.339442011e-01 1.000000000e-09 7.339442011e-01 1.000000000e-09 3.162277660e-01 1.000000000e-09
4.922000000e-01 3.162277660e-01 1.000000000e-09 7.329932917e-01 1.000000000e-09 7.329932917e-01 1.000000000e-09 3.162277660e-01 1.000000000e-09
4.959000000e-01 3.162277660e-01 1.000000000e-09 7.320436142e-01 1.000000000e-09 7.320436142e-01 1.000000000e-09 3.162277660e-01 1.000000000e-09
4.996000000e-01 3.162277660e-01 1.000000000e-09 7.310951672e-01 1.000000000e-09 7.310951672e-01 1.000000000e-09 3.162277660e-01 1.000000000e-09
5.033000000e-01 3.162277660e-01 1.000000000e-09 7.301479489e-01 1.000000000e-09 7.301479489e-01 1.000000000e-09 3.162277660e-01 1.000000000e-09
5.070000000e-01 3.162277660e-01 1.000000000e-09 7.292019579e-01 1.000000000e-09 7.292019579e-01 1.000000000e-09 3.162277660e-01 1.000000000e-09
5.107000000e-01 3.162277660e-01 1.000000000e-09 7.282571926e-01 1.000000000e-09 7.282571926e-01 1.000000000e-09 3.162277660e-01 1.000000000e-09
5.144000000e-01 3.162277660e-01 1.000000000e-09 7.273136513e-01 1.000000000e-09 7.273136513e-01 1.000000000e-09 3.162277660e-01 1.000000000e-09
5.181000000e-01 3.162277660e-01 1.000000000e-09 7.263713325e-01 1.000000000e-09 7.263713325e-01 1.000000000e-09 3.162277660e-01 1.000000000e-09
5.218000000e-01 3.162277660e-01 1.000000000e-09 7.254302345e-01 1.000000000e-09 7.254302345e-01 1.000000000e-09 3.162277660e-01 1.000000000e-09
5.255000000e-01 3.162277660e-01 1.000000000e-09 7.244903559e-01 1.000000000e-09 7.244903559e-01 1.000000000e-09 3.162277660e-01 1.000000000e-09
5.292000000e-01 3.162277660e-01 1.000000000e-09 7.235516950e-01 1.000000000e-09 7.235516950e-01 1.000000000e-09 3.162277660e-01 1.000000000e-09
5.329000000e-01 3.162277660e-01 1.000000000e-09 7.226142502e-01 1.000000000e-09 7.226142502e-01 1.000000000e-09 3.162277660e-01 1.000000000e-09
5.366000000e-01 3.162277660e-01 1.000000000e-09 7.216780200e-01 1.000000000e-09 7.216780200e-01 1.000000000e-09 3.162277660e-01 1.000000000e-09
5.403000000e-01 3.162277660e-01 1.000000000e-09 7.207430027e-01 1.000000000e-09 7.207430027e-01 1.000000000e-09 3.162277660e-01 1.000000000e-09
5.440000000e-01 3.162277660e-01 1.000000000e-09 7.198091970e-01 1.000000000e-09 7.198091970e-01 1.000000000e-09 3.162277660e-01 1.000000000e-09
5.477000000e-01 3.162277660e-01 1.000000000e-09 7.188766010e-01 1.000000000e-09 7.188766010e-01 1.000000000e-09 3.162277660e-01 1.000000000e-09
5.514000000e-01 3.162277660e-01 1.000000000e-09 7.179452134e-01 1.000000000e-09 7.179452134e-01 1.000000000e-09 3.162277660e-01 1.000000000e-09
5.551000000e-01 3.162277660e-01 1.000000000e-09 7.170150324e-01 1.000000000e-09 7.170150324e-01 1.000000000e-09 3.162277660e-01 1.000000000e-09
5.588000000e-01 3.162277660e-01 1.000000000e-09 7.160860566e-01 1.000000000e-09 7.160860566e-01 1.000000000e-09 3.162277660e-01 1.000000000e-09
5.625000000e-01 3.162277660e-01 1.000000000e-09 7.151582845e-01 1.000000000e-09 7.151582845e-01 1.000000000e-09 3.162277660e-01 1.000000000e-09
5.662000000e-01 3.162277660e-01 1.000000000e-09 7.142317143e-01 1.000000000e-09 7.142317143e-01 1.000000000e-09 3.162277660e-01 1.000000000e-09
5.699000000e-01 3.162277660e-01 1.000000000e-09 7.133063446e-01 1.000000000e-09 7.133063446e-01 1.000000000e-09 3.162277660e-01 1.000000000e-09
5.736000000e-01 3.162277660e-01 1.000000000e-09 7.123821739e-01 1.000000000e-09 7.123821739e-01 1.000000000e-09 3.162277660e-01 1.000000000e-09
5.773000000e-01 3.162277660e-01 1.000000000e-09 7.114592005e-01 1.000000000e-09 7.114592005e-01 1.000000000e-09 3.162277660e-01 1.000000000e-09
5.810000000e-01 3.162277660e-01 1.000000000e-09 7.105374230e-01 1.000000000e-09 7.105374230e-01 1.000000000e-09 3.162277660e-01 1.000000000e-09
5.847000000e-01 3.162277660e-01 1.000000000e-09 7.096168397e-01 1.000000000e-09 7.096168397e-01 1.000000000e-09 3.162277660e-01 1.000000000e-09
5.884000000e-01 3.162277660e-01 1.000000000e-09 7.086974491e-01 1.000000000e-09 7.086974491e-01 1.000000000e-09 3.162277660e-01 1.000000000e-09
5.921000000e-01 3.162277660e-01 1.000000000e-09 7.077792497e-01 1.000000000e-09 7.077792497e-01 1.000000000e-09 3.162277660e-01 1.000000000e-09
5.958000000e-01 3.162277660e-01 1.000000000e-09 7.068622400e-01 1.000000000e-09 7.068622400e-01 1.000000000e-09 3.162277660e-01 1.000000000e-09
5.995000000e-01 3.162277660e-01 1.000000000e-09 7.059464183e-01 1.000000000e-09 7.059464183e-01 1.000000000e-09 3.162277660e-01 1.000000000e-09
6.032000000e-01 3.162277660e-01 1.000000000e-09 7.050317832e-01 1.000000000e-09 7.050317832e-01 1.000000000e-09 3.162277660e-01 1.000000000e-09
