# GHz S DB R 50
0.010000 -63.092332 27.220374 -0.006097 -0.550836 -0.006097 -0.550836 -63.092332 27.220374 
0.050000 -58.181186 23.182094 -0.013141 -2.691524 -0.013141 -2.691524 -58.181186 23.182094 
0.100000 -56.400983 8.057367 -0.019841 -5.341484 -0.019841 -5.341484 -56.400983 8.057367 
0.200000 -54.433617 -22.190495 -0.030316 -10.620711 -0.030316 -10.620711 -54.433617 -22.190495 
0.300000 -52.246862 -47.674207 -0.039374 -15.889185 -0.039374 -15.889185 -52.246862 -47.674207 
0.500000 -48.011844 -81.323490 -0.055802 -26.412581 -0.055802 -26.412581 -48.011844 -81.323490 
0.750000 -44.187173 -107.291862 -0.074876 -39.552163 -0.074876 -39.552163 -44.187173 -107.291862 
1.000000 -41.675848 -126.522046 -0.093525 -52.682561 -0.093525 -52.682561 -41.675848 -126.522046 
1.250000 -40.000737 -143.161266 -0.111896 -65.801808 -0.111896 -65.801808 -40.000737 -143.161266 
1.500000 -39.026431 -158.424266 -0.130112 -78.918173 -0.130112 -78.918173 -39.026431 -158.424266 
1.750000 -38.629772 -174.086283 -0.144795 -92.030909 -0.144795 -92.030909 -38.629772 -174.086283 
2.000000 -38.728386 -188.275156 -0.161491 -105.141766 -0.161491 -105.141766 -38.728386 -188.275156 
2.250000 -39.314626 -201.775945 -0.179265 -118.243959 -0.179265 -118.243959 -39.314626 -201.775945 
2.500000 -40.546188 -215.007292 -0.196699 -131.346909 -0.196699 -131.346909 -40.546188 -215.007292 
2.750000 -42.642764 -227.783982 -0.214002 -144.451024 -0.214002 -144.451024 -42.642764 -227.783982 
3.000000 -46.188772 -240.020305 -0.229170 -157.555628 -0.229170 -157.555628 -46.188772 -240.020305 
3.250000 -53.439963 -247.591684 -0.245089 -170.662090 -0.245089 -170.662090 -53.439963 -247.591684 
3.500000 -60.522287 -115.357352 -0.261972 -183.765108 -0.261972 -183.765108 -60.522287 -115.357352 
3.750000 -48.362864 -110.276429 -0.278050 -196.878321 -0.278050 -196.878321 -48.362864 -110.276429 
4.000000 -43.649858 -120.720775 -0.296973 -209.989467 -0.296973 -209.989467 -43.649858 -120.720775 
4.250000 -41.065186 -133.124819 -0.312078 -223.153354 -0.312078 -223.153354 -41.065186 -133.124819 
4.500000 -39.103602 -145.816979 -0.327390 -236.171430 -0.327390 -236.171430 -39.103602 -145.816979 
4.750000 -38.455044 -158.780262 -0.342538 -249.436370 -0.342538 -249.436370 -38.455044 -158.780262 
5.000000 -35.439682 -170.932434 -0.355582 -261.375478 -0.355582 -261.375478 -35.439682 -170.932434 
