!S-Parameters converted from PSpice model by SpiceSParamCombine
!Created on 06/16/2006 at 14:27:10

# GHz S DB R 50
! Freq db(S11) ang(S11) db(S12) ang(S12) db(S13) ang(S13) db(S14) ang(S14)
!      db(S21) ang(S21) db(S22) ang(S22) db(S23) ang(S23) db(S24) ang(S24)
!      db(S31) ang(S31) db(S32) ang(S32) db(S33) ang(S33) db(S34) ang(S34)
!      db(S41) ang(S41) db(S42) ang(S42) db(S43) ang(S43) db(S44) ang(S44)
!     


 0.010000 -25.103690 1.274281 -25.104930 0.876417 -0.000883 -0.139978 -71.595640 -90.426035
          -25.104930 0.876417 -25.104266 1.106911 -70.935841 -90.419704 -0.000882 -0.137896
          -0.000883 -0.139978 -70.935841 -90.419704 -56.818327 89.840807 -59.501843 89.831429
          -71.595640 -90.426035 -0.000882 -0.137896 -59.501843 89.831429 -57.821050 89.840196
         
 0.010471 -25.103436 1.334307 -25.104795 0.917710 -0.000884 -0.146575 -71.195638 -90.446173
          -25.104795 0.917710 -25.104068 1.159058 -70.535839 -90.439539 -0.000883 -0.144395
          -0.000884 -0.146575 -70.535839 -90.439539 -56.418329 89.833213 -59.101846 89.823484
          -71.195638 -90.446173 -0.000883 -0.144395 -59.101846 89.823484 -57.421052 89.832563
         
 0.010965 -25.103157 1.397157 -25.104649 0.960947 -0.000886 -0.153483 -70.795636 -90.467257
          -25.104649 0.960947 -25.103850 1.213659 -70.135837 -90.460306 -0.000885 -0.151200
          -0.000886 -0.153483 -70.135837 -90.460306 -56.018332 89.825266 -58.701850 89.815165
          -70.795636 -90.467257 -0.000885 -0.151200 -58.701850 89.815165 -57.021055 89.824574
         
 0.011482 -25.102852 1.462965 -25.104487 1.006220 -0.000888 -0.160716 -70.395634 -90.489331
          -25.104487 1.006220 -25.103612 1.270831 -69.735836 -90.482049 -0.000886 -0.158326
          -0.000888 -0.160716 -69.735836 -90.482049 -55.618335 89.816947 -58.301854 89.806454
          -70.395634 -90.489331 -0.000886 -0.158326 -58.301854 89.806454 -56.621058 89.816212
         
 0.012023 -25.102518 1.531868 -25.104311 1.053625 -0.000889 -0.168290 -69.995632 -90.512444
          -25.104311 1.053625 -25.103350 1.330692 -69.335834 -90.504815 -0.000888 -0.165788
          -0.000889 -0.168290 -69.335834 -90.504815 -55.218338 89.808241 -57.901858 89.797333
          -69.995632 -90.512444 -0.000888 -0.165788 -57.901858 89.797333 -56.221061 89.807461
         
 0.012589 -25.102151 1.604012 -25.104117 1.103261 -0.000891 -0.176221 -69.595630 -90.536644
          -25.104117 1.103261 -25.103063 1.393371 -68.935832 -90.528652 -0.000889 -0.173601
          -0.000891 -0.176221 -68.935832 -90.528652 -54.818341 89.799127 -57.501862 89.787782
          -69.595630 -90.536644 -0.000889 -0.173601 -57.501862 89.787782 -55.821065 89.798302
         
 0.013183 -25.101748 1.679549 -25.103905 1.155233 -0.000894 -0.184526 -69.195627 -90.561982
          -25.103905 1.155233 -25.102749 1.458998 -68.535830 -90.553610 -0.000892 -0.181783
          -0.000894 -0.184526 -68.535830 -90.553610 -54.418345 89.789588 -57.101867 89.777780
          -69.195627 -90.561982 -0.000892 -0.181783 -57.101867 89.777780 -55.421069 89.788715
         
 0.013804 -25.101307 1.758637 -25.103672 1.209652 -0.000896 -0.193223 -68.795624 -90.588512
          -25.103672 1.209652 -25.102404 1.527712 -68.135827 -90.579742 -0.000894 -0.190350
          -0.000896 -0.193223 -68.135827 -90.579742 -54.018350 89.779602 -56.701872 89.767307
          -68.795624 -90.588512 -0.000894 -0.190350 -56.701872 89.767307 -55.021073 89.778680
         
 0.014454 -25.100824 1.841442 -25.103417 1.266631 -0.000898 -0.202329 -68.395621 -90.616290
          -25.103417 1.266631 -25.102026 1.599658 -67.735824 -90.607104 -0.000896 -0.199321
          -0.000898 -0.202329 -67.735824 -90.607104 -53.618354 89.769149 -56.301878 89.756341
          -68.395621 -90.616290 -0.000896 -0.199321 -56.301878 89.756341 -54.621078 89.768175
         
 0.015136 -25.100293 1.928138 -25.103137 1.326291 -0.000902 -0.211865 -67.995618 -90.645376
          -25.103137 1.326291 -25.101612 1.674987 -67.335821 -90.635753 -0.000899 -0.208714
          -0.000902 -0.211865 -67.335821 -90.635753 -53.218359 89.758206 -55.901884 89.744858
          -67.995618 -90.645376 -0.000899 -0.208714 -55.901884 89.744858 -54.221083 89.757178
         
 0.015849 -25.099712 2.018908 -25.102830 1.388758 -0.000905 -0.221849 -67.595614 -90.675830
          -25.102830 1.388758 -25.101158 1.753856 -66.935818 -90.665751 -0.000902 -0.218551
          -0.000905 -0.221849 -66.935818 -90.665751 -52.818364 89.746751 -55.501891 89.732834
          -67.595614 -90.675830 -0.000902 -0.218551 -55.501891 89.732834 -53.821089 89.745667
         
 0.016596 -25.099074 2.113940 -25.102493 1.454163 -0.000908 -0.232305 -67.195610 -90.707718
          -25.102493 1.454163 -25.100659 1.836433 -66.535814 -90.697161 -0.000905 -0.228851
          -0.000908 -0.232305 -66.535814 -90.697161 -52.418371 89.734758 -55.101899 89.720243
          -67.195610 -90.707718 -0.000905 -0.228851 -55.101899 89.720243 -53.421095 89.733616
         
 0.017378 -25.098376 2.213434 -25.102124 1.522643 -0.000912 -0.243253 -66.795605 -90.741107
          -25.102124 1.522643 -25.100113 1.922889 -66.135810 -90.730050 -0.000908 -0.239636
          -0.000912 -0.243253 -66.135810 -90.730050 -52.018377 89.722202 -54.701907 89.707059
          -66.795605 -90.741107 -0.000908 -0.239636 -54.701907 89.707059 -53.021102 89.721000
         
 0.018197 -25.097610 2.317597 -25.101720 1.594344 -0.000916 -0.254717 -66.395600 -90.776067
          -25.101720 1.594344 -25.099515 2.013406 -65.735805 -90.764487 -0.000912 -0.250930
          -0.000916 -0.254717 -65.735805 -90.764487 -51.618384 89.709058 -54.301916 89.693253
          -66.395600 -90.776067 -0.000912 -0.250930 -54.301916 89.693253 -52.621110 89.707792
         
 0.019055 -25.096770 2.426647 -25.101276 1.669415 -0.000921 -0.266721 -65.995594 -90.812674
          -25.101276 1.669415 -25.098859 2.108173 -65.335801 -90.800546 -0.000916 -0.262755
          -0.000921 -0.266721 -65.335801 -90.800546 -51.218392 89.695296 -53.901926 89.678797
          -65.995594 -90.812674 -0.000916 -0.262755 -53.901926 89.678797 -52.221119 89.693965
         
 0.019953 -25.095850 2.540810 -25.100790 1.748013 -0.000926 -0.279291 -65.595588 -90.851005
          -25.100790 1.748013 -25.098139 2.207388 -64.935796 -90.838303 -0.000921 -0.275139
          -0.000926 -0.279291 -64.935796 -90.838303 -50.818401 89.680888 -53.501938 89.663659
          -65.595588 -90.851005 -0.000921 -0.275139 -53.501938 89.663659 -51.821128 89.679488
         
 0.020893 -25.094840 2.660323 -25.100257 1.830304 -0.000931 -0.292454 -65.195582 -90.891140
          -25.100257 1.830304 -25.097350 2.311259 -64.535790 -90.877837 -0.000926 -0.288105
          -0.000931 -0.292454 -64.535790 -90.877837 -50.418410 89.665803 -53.101949 89.647808
          -65.195582 -90.891140 -0.000926 -0.288105 -53.101949 89.647808 -51.421137 89.664332
         
 0.021878 -25.093735 2.785435 -25.099672 1.916461 -0.000937 -0.306236 -64.795575 -90.933166
          -25.099672 1.916461 -25.096485 2.420001 -64.135784 -90.919234 -0.000931 -0.301683
          -0.000937 -0.306236 -64.135784 -90.919234 -50.018421 89.650009 -52.701963 89.631210
          -64.795575 -90.933166 -0.000931 -0.301683 -52.701963 89.631210 -51.021149 89.648463
         
 0.022909 -25.092522 2.916404 -25.099032 2.006662 -0.000943 -0.320669 -64.395567 -90.977171
          -25.099032 2.006662 -25.095538 2.533842 -63.735777 -90.962580 -0.000937 -0.315901
          -0.000943 -0.320669 -63.735777 -90.962580 -49.618431 89.633474 -52.301977 89.613830
          -64.395567 -90.977171 -0.000937 -0.315901 -52.301977 89.613830 -50.621161 89.631849
         
 0.023988 -25.091193 3.053501 -25.098330 2.101097 -0.000951 -0.335781 -63.995558 -91.023248
          -25.098330 2.101097 -25.094498 2.653015 -63.335769 -91.007968 -0.000944 -0.330789
          -0.000951 -0.335781 -63.335769 -91.007968 -49.218444 89.616160 -51.901993 89.595631
          -63.995558 -91.023248 -0.000944 -0.330789 -51.901993 89.595631 -50.221174 89.614454
         
 0.025119 -25.089736 3.197007 -25.097559 2.199962 -0.000959 -0.351606 -63.595549 -91.071495
          -25.097559 2.199962 -25.093360 2.777770 -62.935760 -91.055494 -0.000951 -0.346378
          -0.000959 -0.351606 -62.935760 -91.055494 -48.818458 89.598033 -51.502011 89.576574
          -63.595549 -91.071495 -0.000951 -0.346378 -51.502011 89.576574 -49.821188 89.596242
         
 0.026303 -25.088139 3.347217 -25.096715 2.303463 -0.000967 -0.368176 -63.195539 -91.122015
          -25.096715 2.303463 -25.092111 2.908363 -62.535751 -91.105258 -0.000959 -0.362702
          -0.000967 -0.368176 -62.535751 -91.105258 -48.418473 89.579053 -51.102030 89.556619
          -63.195539 -91.122015 -0.000959 -0.362702 -51.102030 89.556619 -49.421204 89.577173
         
 0.027542 -25.086388 3.504438 -25.095790 2.411816 -0.000977 -0.385527 -62.795527 -91.174915
          -25.095790 2.411816 -25.090742 3.045063 -62.135741 -91.157367 -0.000968 -0.379795
          -0.000977 -0.385527 -62.135741 -91.157367 -48.018489 89.559180 -50.702051 89.535724
          -62.795527 -91.174915 -0.000968 -0.379795 -50.702051 89.535724 -49.021222 89.557207
         
 0.028840 -25.084470 3.668991 -25.094775 2.525245 -0.000987 -0.403696 -62.395515 -91.230307
          -25.094775 2.525245 -25.089242 3.188152 -61.735731 -91.211930 -0.000977 -0.397694
          -0.000987 -0.403696 -61.735731 -91.211930 -47.618507 89.538372 -50.302074 89.513844
          -62.395515 -91.230307 -0.000977 -0.397694 -50.302074 89.513844 -48.621240 89.536303
         
 0.030200 -25.082368 3.841210 -25.093663 2.643984 -0.000999 -0.422722 -61.995501 -91.288307
          -25.093663 2.643984 -25.087597 3.337922 -61.335718 -91.269063 -0.000988 -0.416436
          -0.000999 -0.422722 -61.335718 -91.269063 -47.218527 89.516585 -49.902099 89.490933
          -61.995501 -91.288307 -0.000988 -0.416436 -49.902099 89.490933 -48.221261 89.514415
         
 0.031623 -25.080064 4.021443 -25.092444 2.768279 -0.001011 -0.442643 -61.595486 -91.349040
          -25.092444 2.768279 -25.085795 3.494680 -60.935705 -91.328888 -0.000999 -0.436062
          -0.001011 -0.442643 -60.935705 -91.328888 -46.818548 89.493773 -49.502126 89.466943
          -61.595486 -91.349040 -0.000999 -0.436062 -49.502126 89.466943 -47.821284 89.491496
         
 0.033113 -25.077539 4.210052 -25.091108 2.898387 -0.001025 -0.463504 -61.195470 -91.412634
          -25.091108 2.898387 -25.083820 3.658743 -60.535691 -91.391530 -0.001012 -0.456612
          -0.001025 -0.463504 -60.535691 -91.391530 -46.418572 89.469887 -49.102157 89.441822
          -61.195470 -91.412634 -0.001012 -0.456612 -49.102157 89.441822 -47.421309 89.467500
         
 0.034674 -25.074772 4.407415 -25.089643 3.034573 -0.001040 -0.485347 -60.795451 -91.479224
          -25.089643 3.034573 -25.081655 3.830445 -60.135674 -91.457124 -0.001026 -0.478131
          -0.001040 -0.485347 -60.135674 -91.457124 -46.018598 89.444877 -48.702190 89.415517
          -60.795451 -91.479224 -0.001026 -0.478131 -48.702190 89.415517 -47.021337 89.442374
         
 0.036308 -25.071740 4.613925 -25.088038 3.177116 -0.001057 -0.508220 -60.395432 -91.548951
          -25.088038 3.177116 -25.079283 4.010131 -59.735657 -91.525809 -0.001041 -0.500664
          -0.001057 -0.508220 -59.735657 -91.525809 -45.618627 89.418690 -48.302227 89.387973
          -60.395432 -91.548951 -0.001041 -0.500664 -48.302227 89.387973 -46.621367 89.416066
         
 0.038019 -25.068418 4.829990 -25.086279 3.326309 -0.001075 -0.532171 -59.995410 -91.621962
          -25.086279 3.326309 -25.076683 4.198162 -59.335638 -91.597729 -0.001057 -0.524259
          -0.001075 -0.532171 -59.335638 -91.597729 -45.218658 89.391270 -47.902267 89.359130
          -59.995410 -91.621962 -0.001057 -0.524259 -47.902267 89.359130 -46.221401 89.388519
         
 0.039811 -25.064779 5.056035 -25.084350 3.482452 -0.001094 -0.557251 -59.595386 -91.698413
          -25.084350 3.482452 -25.073834 4.394914 -58.935617 -91.673037 -0.001075 -0.548966
          -0.001094 -0.557251 -58.935617 -91.673037 -44.818692 89.362559 -47.502310 89.328929
          -59.595386 -91.698413 -0.001075 -0.548966 -47.502310 89.328929 -45.821437 89.359676
         
 0.041687 -25.060792 5.292499 -25.082237 3.645863 -0.001116 -0.583512 -59.195359 -91.778466
          -25.082237 3.645863 -25.070713 4.600776 -58.535594 -91.751892 -0.001095 -0.574836
          -0.001116 -0.583512 -58.535594 -91.751892 -44.418729 89.332496 -47.102359 89.297305
          -59.195359 -91.778466 -0.001095 -0.574836 -47.102359 89.297305 -45.421477 89.329474
         
 0.043652 -25.056425 5.539841 -25.079921 3.816869 -0.001140 -0.611011 -58.795331 -91.862290
          -25.079921 3.816869 -25.067293 4.816154 -58.135569 -91.834463 -0.001117 -0.601926
          -0.001140 -0.611011 -58.135569 -91.834463 -44.018771 89.301017 -46.702411 89.264190
          -58.795331 -91.862290 -0.001117 -0.601926 -46.702411 89.264190 -45.021521 89.297851
         
 0.045709 -25.051642 5.798534 -25.077383 3.995815 -0.001166 -0.639805 -58.395299 -91.950062
          -25.077383 3.995815 -25.063546 5.041469 -57.735541 -91.920923 -0.001141 -0.630293
          -0.001166 -0.639805 -57.735541 -91.920923 -43.618816 89.268057 -46.302469 89.229516
          -58.395299 -91.950062 -0.001141 -0.630293 -46.302469 89.229516 -44.621569 89.264739
         
 0.047863 -25.046403 6.069068 -25.074601 4.183056 -0.001195 -0.669957 -57.995265 -92.041970
          -25.074601 4.183056 -25.059442 5.277159 -57.335511 -92.011457 -0.001168 -0.659996
          -0.001195 -0.669957 -57.335511 -92.011457 -43.218865 89.233544 -45.902533 89.193207
          -57.995265 -92.041970 -0.001168 -0.659996 -45.902533 89.193207 -44.221621 89.230067
         
 0.050119 -25.040666 6.351951 -25.071554 4.378964 -0.001226 -0.701529 -57.595228 -92.138207
          -25.071554 4.378964 -25.054947 5.523676 -56.935478 -92.106256 -0.001196 -0.691099
          -0.001226 -0.701529 -56.935478 -92.106256 -42.818920 89.197406 -45.502602 89.155188
          -57.595228 -92.138207 -0.001196 -0.691099 -45.502602 89.155188 -43.821679 89.193764
         
 0.052481 -25.034385 6.647706 -25.068215 4.583922 -0.001261 -0.734588 -57.195186 -92.238977
          -25.068215 4.583922 -25.050022 5.781490 -56.535441 -92.205520 -0.001228 -0.723667
          -0.001261 -0.734588 -56.535441 -92.205520 -42.418979 89.159566 -45.102678 89.115378
          -57.195186 -92.238977 -0.001228 -0.723667 -45.102678 89.115378 -43.421742 89.155750
         
 0.054954 -25.027508 6.956873 -25.064557 4.798332 -0.001299 -0.769206 -56.795141 -92.344494
          -25.064557 4.798332 -25.044630 6.051088 -56.135401 -92.309460 -0.001263 -0.757770
          -0.001299 -0.769206 -56.135401 -92.309460 -42.019045 89.119944 -44.702762 89.073692
          -56.795141 -92.344494 -0.001263 -0.757770 -44.702762 89.073692 -43.021811 89.115947
         
 0.057544 -25.019981 7.280008 -25.060551 5.022608 -0.001340 -0.805454 -56.395091 -92.454981
          -25.060551 5.022608 -25.038725 6.332971 -55.735357 -92.418296 -0.001300 -0.793480
          -0.001340 -0.805454 -55.735357 -92.418296 -41.619116 89.078457 -44.302853 89.030042
          -56.395091 -92.454981 -0.001300 -0.793480 -44.302853 89.030042 -42.621887 89.074269
         
 0.060256 -25.011742 7.617683 -25.056162 5.257181 -0.001385 -0.843410 -55.995036 -92.570673
          -25.056162 5.257181 -25.032260 6.627656 -55.335309 -92.532259 -0.001342 -0.830872
          -0.001385 -0.843410 -55.335309 -92.532259 -41.219195 89.035015 -43.902954 88.984336
          -55.995036 -92.570673 -0.001342 -0.830872 -43.902954 88.984336 -42.221971 89.030629
         
 0.063096 -25.002727 7.970484 -25.051354 5.502495 -0.001435 -0.883155 -55.594977 -92.691814
          -25.051354 5.502495 -25.025182 6.935678 -54.935257 -92.651590 -0.001388 -0.870026
          -0.001435 -0.883155 -54.935257 -92.651590 -40.819281 88.989527 -43.503064 88.936477
          -55.594977 -92.691814 -0.001388 -0.870026 -43.503064 88.936477 -41.822062 88.984933
         
 0.066069 -24.992864 8.339011 -25.046089 5.759011 -0.001490 -0.924772 -55.194911 -92.818660
          -25.046089 5.759011 -25.017436 7.257586 -54.535199 -92.776541 -0.001438 -0.911025
          -0.001490 -0.924772 -54.535199 -92.776541 -40.419375 88.941898 -43.103185 88.886364
          -55.194911 -92.818660 -0.001438 -0.911025 -43.103185 88.886364 -41.422162 88.937086
         
 0.069183 -24.982076 8.723876 -25.040324 6.027207 -0.001550 -0.968350 -54.794839 -92.951481
          -25.040324 6.027207 -25.008958 7.593942 -54.135135 -92.907377 -0.001493 -0.953955
          -0.001550 -0.968350 -54.135135 -92.907377 -40.019479 88.892025 -42.703317 88.833890
          -54.794839 -92.951481 -0.001493 -0.953955 -42.703317 88.833890 -41.022272 88.886986
         
 0.072444 -24.970278 9.125702 -25.034012 6.307571 -0.001616 -1.013981 -54.394760 -93.090557
          -25.034012 6.307571 -24.999681 7.945325 -53.735066 -93.044375 -0.001553 -0.998908
          -0.001616 -1.013981 -53.735066 -93.044375 -39.619592 88.839804 -42.303463 88.778944
          -54.394760 -93.090557 -0.001553 -0.998908 -42.303463 88.778944 -40.622393 88.834526
         
 0.075858 -24.957379 9.545123 -25.027102 6.600609 -0.001687 -1.061761 -53.994673 -93.236182
          -25.027102 6.600609 -24.989533 8.312324 -53.334990 -93.187825 -0.001619 -1.045978
          -0.001687 -1.061761 -53.334990 -93.187825 -39.219716 88.785123 -41.903622 88.721411
          -53.994673 -93.236182 -0.001619 -1.045978 -41.903622 88.721411 -40.222525 88.779597
         
 0.079433 -24.943281 9.982777 -25.019538 6.906842 -0.001766 -1.111792 -53.594579 -93.388665
          -25.019538 6.906842 -24.978433 8.695540 -52.934906 -93.338030 -0.001691 -1.095266
          -0.001766 -1.111792 -52.934906 -93.338030 -38.819852 88.727868 -41.503796 88.661168
          -53.594579 -93.388665 -0.001691 -1.095266 -41.503796 88.661168 -39.822669 88.722081
         
 0.083176 -24.927875 10.439309 -25.011260 7.226801 -0.001853 -1.164180 -53.194475 -93.548327
          -25.011260 7.226801 -24.966297 9.095586 -52.534814 -93.495307 -0.001771 -1.146876
          -0.001853 -1.164180 -52.534814 -93.495307 -38.420002 88.667917 -41.103987 88.598089
          -53.194475 -93.548327 -0.001771 -1.146876 -41.103987 88.598089 -39.422828 88.661856
         
 0.087096 -24.911047 10.915361 -25.002203 7.561034 -0.001948 -1.219036 -52.794361 -93.715506
          -25.002203 7.561034 -24.953029 9.513077 -52.134715 -93.659989 -0.001858 -1.200917
          -0.001948 -1.219036 -52.134715 -93.659989 -38.020166 88.605142 -40.704197 88.532039
          -52.794361 -93.715506 -0.001858 -1.200917 -40.704197 88.532039 -39.023002 88.598797
         
 0.091201 -24.892672 11.411580 -24.992294 7.910096 -0.002052 -1.276475 -52.394236 -93.890556
          -24.992294 7.910096 -24.938528 9.948640 -51.734604 -93.832425 -0.001953 -1.257503
          -0.002052 -1.276475 -51.734604 -93.832425 -37.620346 88.539412 -40.304427 88.462879
          -52.394236 -93.890556 -0.001953 -1.257503 -40.304427 88.462879 -38.623194 88.532768
         
 0.095499 -24.872614 11.928598 -24.981456 8.274555 -0.002166 -1.336619 -51.994099 -94.073846
          -24.981456 8.274555 -24.922685 10.402900 -51.334484 -94.012978 -0.002057 -1.316754
          -0.002166 -1.336619 -51.334484 -94.012978 -37.220542 88.470588 -39.904680 88.390463
          -51.994099 -94.073846 -0.002057 -1.316754 -39.904680 88.390463 -38.223402 88.463632
         
 0.100000 -24.850729 12.467041 -24.969606 8.654987 -0.002291 -1.399596 -51.593949 -94.265763
          -24.969606 8.654987 -24.905381 10.876482 -50.934352 -94.202030 -0.002172 -1.378796
